! Network Analyzer HP8753D.06.12 Serial No. 3410A09394
! 
! 12 Jun 2019  14:22:04
# HZ  S  DB R 50
50000000  -12.807    162.47    26.178   -43.329   -49.357    138.34   -11.917    1.2195   
51000000  -12.722    161.64    26.182   -44.823   -53.746    136.67   -11.821    .7841   
52000000  -12.644    160.94    26.191   -46.288   -52.712    134.21   -11.814    .2993   
53000000  -12.689    159.9    26.192   -47.748   -51.824    132.92   -11.836    .2458   
54000000  -12.586    159.11    26.194   -49.124   -53.371    125.63   -11.839   -.0892   
55000000  -12.609    158.16    26.2   -50.555   -51.289    153.12   -11.763   -.5246   
56000000  -12.556    156.81    26.209   -52.008   -50.959    142.66   -11.76   -1.0767   
57000000  -12.484    156.36    26.203   -53.378   -54.672    127.51   -11.722   -1.4557   
58000000  -12.505    155.35    26.214   -54.763   -50.723    127.37   -11.711   -1.7647   
59000000  -12.455    154.74    26.212   -56.133   -53.273    115.2   -11.681   -2.0737   
60000000  -12.444    153.94    26.221   -57.52   -52.482    112.94   -11.687   -2.2728   
61000000  -12.449    152.81    26.214   -58.84   -50.463    111.52   -11.65   -2.8221   
62000000  -12.399    151.89    26.226   -60.193   -51.749    116.32   -11.632   -3.4181   
63000000  -12.362    151.12    26.233   -61.552   -53.62    110.63   -11.578   -3.9084   
64000000  -12.405    150.06    26.236   -62.899   -52.123    128.69   -11.574   -3.7697   
65000000  -12.249    149.39    26.246   -64.311   -55.484    109.69   -11.583   -4.5264   
66000000  -12.243    148.29    26.237   -65.593   -54.877    109.58   -11.542   -4.7433   
67000000  -12.262    147.69    26.244   -66.93   -52.422    119.37   -11.495   -5.5481   
68000000  -12.242    146.8    26.24   -68.181   -51.26    112.24   -11.485   -5.8488   
69000000  -12.248    146.06    26.247   -69.57   -51.004    111.56   -11.506   -6.0384   
70000000  -12.235    144.9    26.259   -70.854   -52.155    105.44   -11.47   -6.4407   
71000000  -12.221    144.57    26.255   -72.15   -52.125    108.66   -11.441   -6.7319   
72000000  -12.174    143.42    26.268   -73.455   -53.052    131.09   -11.399   -7.3732   
73000000  -12.217    142.97    26.254   -74.766   -51.312    127.56   -11.395   -7.7303   
74000000  -12.222    142.09    26.266   -76.075   -53.692    109.86   -11.397   -7.9816   
75000000  -12.135    141.23    26.271   -77.265   -55.65    94.117   -11.358   -8.5625   
76000000  -12.122    140.28    26.262   -78.533   -53.764    100.25   -11.366   -8.7204   
77000000  -12.186    139.5    26.258   -79.862   -52.559    117.55   -11.338   -9.0843   
78000000  -12.167    138.81    26.279   -81.166   -51.111    125.1   -11.28   -9.8506   
79000000  -12.141    138.06    26.287   -82.496   -53.196    90.805   -11.374   -9.9399   
80000000  -12.126    137.36    26.301   -83.736   -52.271    113.1   -11.269   -10.397   
81000000  -12.122    136.41    26.305   -85.034   -52.41    101.01   -11.294   -10.817   
82000000  -12.065    135.82    26.299   -86.267   -52.211    99.123   -11.265   -11.246   
83000000  -12.053    134.68    26.292   -87.495   -52.127    85.08   -11.186   -11.716   
84000000  -12.066    133.98    26.305   -88.765   -52.036    101.48   -11.257   -12.13   
85000000  -12.048    133.76    26.296   -89.984   -52.624    106.29   -11.255   -12.787   
86000000  -12.083    133.11    26.305   -91.262   -52.595    104.35   -11.199   -12.993   
87000000  -12.082    132.09    26.309   -92.515   -55.653    112.22   -11.207   -13.726   
88000000  -12.087    131.36    26.315   -93.803   -53.525    90.062   -11.253   -13.977   
89000000  -12.081    130.54    26.312   -95.039   -50.765    87.453   -11.221   -14.212   
90000000  -12.073    129.6    26.323   -96.264   -52.282    90.562   -11.197   -14.9   
91000000  -12.094    129.04    26.307   -97.502   -53.656    93.605   -11.182   -15.146   
92000000  -12.053    128.02    26.321   -98.771   -49.32    88.531   -11.16   -15.529   
93000000  -12.055    127.68    26.332   -100.01   -51.406    87.91   -11.157   -15.776   
94000000  -12.112    126.68    26.332   -101.26   -54.655    80.556   -11.131   -16.514   
95000000  -12.075    126.57    26.32   -102.52   -56.683    101.58   -11.173   -16.971   
96000000  -12.053    125.21    26.331   -103.7   -52.669    78.098   -11.146   -17.536   
97000000  -12.102    124.76    26.332   -104.94   -54.339    54.006   -11.128   -17.959   
98000000  -12.098    124.22    26.33   -106.21   -51.183    66.693   -11.134   -18.184   
99000000  -12.104    123.41    26.333   -107.33   -52.567    86.184   -11.112   -18.548   
100000000  -12.107    122.44    26.337   -108.62   -55.376    80.386   -11.176   -19.232   
101000000  -12.11    121.92    26.343   -109.81   -52.156    80.063   -11.185   -19.661   
102000000  -12.076    120.95    26.344   -111.01   -51.755    61.092   -11.124   -20.094   
103000000  -12.088    120.58    26.345   -112.21   -51.295    71.943   -11.152   -20.477   
104000000  -12.069    119.74    26.353   -113.47   -51.466    71.106   -11.165   -21.084   
105000000  -12.02    119.33    26.354   -114.66   -53.38    93.967   -11.152   -21.297   
106000000  -12.043    118.23    26.356   -115.83   -52.689    52.78   -11.149   -21.653   
107000000  -12.104    117.5    26.369   -117.13   -51.518    71.223   -11.181   -22.19   
108000000  -12.097    117.08    26.369   -118.33   -49.616    64.999   -11.141   -22.431   
109000000  -12.07    115.94    26.377   -119.46   -53.979    81.81   -11.126   -22.999   
110000000  -12.118    115.5    26.386   -120.73   -51.997    85.406   -11.216   -23.188   
111000000  -12.094    114.58    26.39   -121.82   -53.768    54.227   -11.172   -24.074   
112000000  -12.082    114.04    26.39   -123.16   -55.058    76.744   -11.205   -24.156   
113000000  -12.087    112.93    26.402   -124.24   -56.109    83.764   -11.194   -24.798   
114000000  -12.142    112.39    26.41   -125.53   -51.337    57.708   -11.246   -25.466   
115000000  -12.107    111.92    26.421   -126.65   -52.381    65.097   -11.225   -25.381   
116000000  -12.1    111.13    26.419   -127.96   -53.385    68.952   -11.247   -26.02   
117000000  -12.126    110.59    26.437   -129.16   -53.127    56.041   -11.25   -26.734   
118000000  -12.076    109.79    26.442   -130.3   -51.078    58.061   -11.219   -26.831   
119000000  -12.155    108.9    26.447   -131.5   -52.726    54.058   -11.287   -27.519   
120000000  -12.17    108.62    26.453   -132.71   -51.432    60.014   -11.339   -27.846   
121000000  -12.199    107.97    26.447   -134.08   -53.79    70.705   -11.274   -28.376   
122000000  -12.151    107.16    26.455   -135.12   -51.518    61.083   -11.309   -28.742   
123000000  -12.193    106.47    26.459   -136.34   -57.354    62.456   -11.354   -29.084   
124000000  -12.186    106.11    26.464   -137.6   -53.796    42.128   -11.294   -29.377   
125000000  -12.186    105.32    26.474   -138.76   -52.578    43.007   -11.374   -29.761   
126000000  -12.164    104.83    26.474   -139.97   -52.415    42.374   -11.389   -30.288   
127000000  -12.203    104.37    26.499   -141.19   -51.166    55.911   -11.378   -31.211   
128000000  -12.147    103.26    26.493   -142.4   -49.831    57.57   -11.445   -31.244   
129000000  -12.202    102.84    26.508   -143.62   -55.665    61.897   -11.432   -31.864   
130000000  -12.198    102.25    26.518   -144.82   -54.938    27.346   -11.424   -32.186   
131000000  -12.218    101.69    26.517   -146.02   -56.66    41.354   -11.486   -32.89   
132000000  -12.19    101.06    26.535   -147.21   -53.039    71.956   -11.463   -33.267   
133000000  -12.233    100.43    26.524   -148.47   -54.121    58.16   -11.541   -33.533   
134000000  -12.214    99.478    26.546   -149.67   -50.938    54.739   -11.543   -33.897   
135000000  -12.218    98.687    26.55   -150.93   -50.971    72   -11.549   -34.264   
136000000  -12.224    98.356    26.555   -152.13   -53.966    28.634   -11.578   -34.408   
137000000  -12.293    97.594    26.566   -153.34   -51.808    27.868   -11.555   -35.32   
138000000  -12.287    96.887    26.573   -154.55   -54.987    57.702   -11.647   -35.637   
139000000  -12.277    96.445    26.577   -155.76   -51.896    44.063   -11.599   -35.859   
140000000  -12.28    95.663    26.583   -156.94   -53.478    44.673   -11.641   -36.517   
141000000  -12.324    95.234    26.592   -158.22   -51.064    23.974   -11.665   -36.553   
142000000  -12.274    94.401    26.611   -159.44   -51.967    27.399   -11.699   -37.219   
143000000  -12.278    93.785    26.615   -160.66   -53.474    62.188   -11.718   -36.98   
144000000  -12.335    93.139    26.625   -161.87   -52.469    34.332   -11.725   -37.943   
145000000  -12.304    92.762    26.635   -163.08   -54.75    20.8   -11.803   -38.177   
146000000  -12.333    92.208    26.651   -164.3   -51.071    15.255   -11.802   -38.735   
147000000  -12.31    91.734    26.655   -165.49   -53.091    23.807   -11.841   -39.01   
148000000  -12.392    90.634    26.655   -166.7   -50.251    26.095   -11.847   -39.592   
149000000  -12.349    90.108    26.682   -167.92   -53.356    41.041   -11.881   -39.683   
150000000  -12.398    89.381    26.675   -169.11   -53.055    17.932   -11.918   -40.133   
151000000  -12.36    88.607    26.691   -170.37   -54.327    37.452   -11.96   -40.018   
152000000  -12.43    88.175    26.709   -171.55   -55.205    12.857   -12.014   -40.838   
153000000  -12.409    87.292    26.713   -172.76   -53.886    35.258   -12.081   -40.899   
154000000  -12.4    87.12    26.724   -174.04   -50.31    24.629   -12.09   -41.66   
155000000  -12.386    85.892    26.733   -175.27   -53.984    16.18   -12.14   -41.585   
156000000  -12.424    85.537    26.747   -176.44   -50.712    36.933   -12.127   -42.179   
157000000  -12.413    84.968    26.765   -177.7   -54.082    19.812   -12.119   -42.231   
158000000  -12.467    84.365    26.772   -178.83   -54.184   -8.1189   -12.2   -42.492   
159000000  -12.498    83.533    26.785    179.94   -51.131    24.37   -12.175   -43.043   
160000000  -12.418    82.853    26.802    178.65   -52.938    12.717   -12.291   -43.165   
161000000  -12.512    82.474    26.817    177.45   -51.191    20.086   -12.274   -43.782   
162000000  -12.472    81.722    26.832    176.26   -53.897    2.8015   -12.263   -44.017   
163000000  -12.561    81.012    26.848    175.03   -51.198    23.545   -12.389   -44.528   
164000000  -12.535    80.121    26.864    173.8   -51.769    4.742   -12.431   -44.536   
165000000  -12.617    80.007    26.883    172.6   -50.806    21.368   -12.429   -44.842   
166000000  -12.58    78.72    26.897    171.27   -54.223    8.7479   -12.475   -44.977   
167000000  -12.633    78.615    26.909    170.07   -54.34    32.966   -12.512   -45.722   
168000000  -12.704    77.75    26.926    168.81   -51.075    3.035   -12.557   -45.904   
169000000  -12.705    77.493    26.944    167.53   -52.705    24.12   -12.541   -46.045   
170000000  -12.68    76.457    26.954    166.32   -51.101   -.2444   -12.645   -46.685   
171000000  -12.662    76.098    26.963    165.06   -52.301    28.408   -12.686   -46.685   
172000000  -12.755    75.359    26.985    163.76   -51.819   -.1963   -12.63   -46.778   
173000000  -12.737    74.872    27    162.51   -51.12    5.11   -12.75   -47.083   
174000000  -12.798    74.493    27.013    161.26   -52.118    11.842   -12.741   -47.34   
175000000  -12.849    73.876    27.033    160   -55.374   -9.2807   -12.775   -47.714   
176000000  -12.812    73.319    27.05    158.67   -54.383    2.6944   -12.826   -48.086   
177000000  -12.814    72.375    27.057    157.47   -51.557    10.112   -12.981   -48.142   
178000000  -12.862    72.118    27.075    156.18   -54.082    15.367   -12.957   -48.415   
179000000  -12.911    71.702    27.079    154.94   -54.184    4.1817   -12.939   -48.463   
180000000  -12.899    70.484    27.093    153.65   -49.883   -10.12   -12.98   -49.088   
181000000  -12.932    70.053    27.106    152.38   -52.918    7.6108   -13.042   -48.958   
182000000  -12.963    69.729    27.104    151.05   -54.531    11.916   -13.125   -49.481   
183000000  -13.055    69.004    27.128    149.81   -52.532   -11.672   -13.06   -49.764   
184000000  -13.051    68.498    27.142    148.57   -56.982   -11.986   -13.088   -50.206   
185000000  -13.06    68.2    27.146    147.26   -50.508   -31.963   -13.16   -50.279   
186000000  -13.08    67.234    27.161    145.96   -52.041   -13.992   -13.237   -50.517   
187000000  -13.096    67.115    27.175    144.57   -51.843   -47.326   -13.201   -50.827   
188000000  -13.149    66.239    27.186    143.32   -54.325   -14.155   -13.327   -50.805   
189000000  -13.199    65.722    27.201    142.14   -52.915   -7.9596   -13.271   -50.836   
190000000  -13.183    65.275    27.212    140.81   -55.972   -12.899   -13.357   -51.47   
191000000  -13.215    64.789    27.222    139.44   -50.993   -12.04   -13.43   -51.405   
192000000  -13.287    63.958    27.231    138.11   -51.575   -11.948   -13.422   -51.442   
193000000  -13.326    63.912    27.244    136.8   -54.48   -22.56   -13.493   -52.11   
194000000  -13.423    63.219    27.271    135.58   -50.139   -37.455   -13.456   -51.967   
195000000  -13.36    62.757    27.277    134.22   -52.613   -30.969   -13.552   -52.21   
196000000  -13.456    62.475    27.299    132.92   -49.455   -29.469   -13.52   -52.574   
197000000  -13.454    61.346    27.302    131.55   -57.464   -36.329   -13.546   -51.972   
198000000  -13.483    61.293    27.325    130.22   -55.375   -14.918   -13.67   -52.472   
199000000  -13.576    60.698    27.347    128.92   -52.04   -24.727   -13.613   -52.738   
200000000  -13.63    59.819    27.342    127.63   -52.788   -61.975   -13.754   -52.962   
201000000  -13.683    59.665    27.358    126.33   -52.675   -71.506   -13.791   -52.997   
202000000  -13.715    58.732    27.368    125.05   -53.282   -46.324   -13.703   -53.248   
203000000  -13.698    58.421    27.373    123.73   -52.495   -53.107   -13.739   -53.057   
204000000  -13.751    57.923    27.388    122.37   -53.868   -49.099   -13.802   -53.524   
205000000  -13.8    57.681    27.404    121.11   -51.145   -18.468   -13.84   -53.679   
206000000  -13.914    57.292    27.414    119.77   -53.94   -29.099   -13.857   -53.586   
207000000  -13.947    56.814    27.412    118.47   -55.358   -7.5421   -13.904   -54.344   
208000000  -13.954    56.078    27.422    117.1   -53.687   -45.325   -13.889   -53.746   
209000000  -13.938    55.999    27.434    115.79   -50.065   -19.394   -13.917   -54.37   
210000000  -14.011    55.444    27.45    114.51   -54.576   -38.73   -14.015   -54.212   
211000000  -14.135    55.188    27.465    113.24   -54.71   -26.812   -13.977   -54.616   
212000000  -14.159    54.934    27.48    111.89   -55.296   -37.705   -13.994   -55.059   
213000000  -14.261    53.796    27.496    110.51   -51.895   -53.475   -14.084   -54.3   
214000000  -14.233    54.229    27.501    109.22   -53.369   -9.8177   -14.167   -55.039   
215000000  -14.282    53.45    27.514    107.83   -51.406   -27.904   -14.142   -54.933   
216000000  -14.319    53.505    27.528    106.54   -57.492   -50.68   -14.145   -55.253   
217000000  -14.402    52.381    27.527    105.04   -51.48   -47.321   -14.047   -55.344   
218000000  -14.474    52.73    27.538    103.79   -51.389   -56.301   -14.08   -55.029   
219000000  -14.565    52.215    27.564    102.55   -54.675   -43.267   -14.229   -55.416   
220000000  -14.618    51.923    27.567    101.08   -51.968   -47.848   -14.222   -55.822   
221000000  -14.691    51.905    27.572    99.735   -60.145   -38.323   -14.283   -55.874   
222000000  -14.737    51.181    27.592    98.422   -63.516   -27.202   -14.276   -56.707   
223000000  -14.891    50.898    27.598    97.112   -52.234   -55.881   -14.245   -55.823   
224000000  -14.866    50.507    27.609    95.668   -53.479   -74.75   -14.337   -56.298   
225000000  -14.877    50.286    27.617    94.264   -55.139   -60.64   -14.278   -56.82   
226000000  -15.004    50.371    27.624    92.922   -52.907   -56.982   -14.368   -56.515   
227000000  -15.071    50.482    27.634    91.594   -54.485   -70.948   -14.262   -56.742   
228000000  -15.109    48.956    27.648    90.144   -57.153   -18.469   -14.352   -56.781   
229000000  -15.19    50.109    27.659    88.765   -57.273   -109.44   -14.452   -57.555   
230000000  -15.303    49.536    27.66    87.384   -55.818   -44.776   -14.359   -57.1   
231000000  -15.316    49.552    27.663    85.947   -56.946   -75.217   -14.462   -57.148   
232000000  -15.454    49.364    27.672    84.625   -53.815   -70.155   -14.395   -57.851   
233000000  -15.478    49.076    27.68    83.227   -54.243   -91.004   -14.483   -57.869   
234000000  -15.572    49.326    27.671    81.852   -56.149   -75.284   -14.486   -58.035   
235000000  -15.602    49.112    27.69    80.45   -54.116   -105.66   -14.494   -58.353   
236000000  -15.718    49.187    27.694    79.047   -51.479   -64.07   -14.439   -58.744   
237000000  -15.849    49.213    27.691    77.605   -51.961   -42.079   -14.414   -58.837   
238000000  -15.856    49.47    27.706    76.237   -51.9   -75.315   -14.482   -58.965   
239000000  -15.924    49.053    27.702    74.82   -52.669   -76.665   -14.527   -58.931   
240000000  -16.107    49.296    27.708    73.419   -59.597   -69.309   -14.478   -59.464   
241000000  -16.061    49.535    27.708    72.025   -53.911   -81.567   -14.537   -59.587   
242000000  -16.169    50.357    27.699    70.549   -52.033   -85.395   -14.569   -59.7   
243000000  -16.237    50.74    27.71    69.254   -53.002   -75.403   -14.545   -59.933   
244000000  -16.419    50.346    27.71    67.768   -59.217   -106.29   -14.521   -59.878   
245000000  -16.513    50.791    27.705    66.386   -59.017   -131.36   -14.633   -60.358   
246000000  -16.537    51.823    27.699    64.962   -54.259   -92.631   -14.562   -60.336   
247000000  -16.534    52.085    27.709    63.528   -55.674   -119.69   -14.552   -60.732   
248000000  -16.585    52.793    27.701    62.229   -54.679   -102.3   -14.621   -61.279   
249000000  -16.646    53.13    27.698    60.848   -54.929   -111.09   -14.611   -61.32   
250000000  -16.646    54.327    27.697    59.376   -53.091   -91.11   -14.648   -61.942   
