! Network Analyzer HP8753D.06.12 Serial No. 3410A09394
! 
! 12 Jun 2019  13:25:13
# HZ  S  DB R 50
50000000  -12.736    162.1    26.363   -42.984   -50.828    141.11   -11.935   -.1236   
51000000  -12.666    160.87    26.366   -44.459   -50.453    145.82   -11.932   -.1936   
52000000  -12.636    160.1    26.376   -45.9   -54.274    142.81   -11.874   -.6578   
53000000  -12.623    159.12    26.379   -47.354   -53.932    145.46   -11.896   -.5438   
54000000  -12.59    158.33    26.385   -48.73   -55.675    165.8   -11.925   -1.2415   
55000000  -12.574    157.41    26.39   -50.161   -52.523    111.87   -11.868   -1.3609   
56000000  -12.53    156.04    26.404   -51.619   -50.997    131.3   -11.889   -1.9652   
57000000  -12.502    155.4    26.399   -52.986   -52.006    143.89   -11.839   -2.2385   
58000000  -12.491    154.73    26.411   -54.362   -53.094    139.05   -11.833   -2.8688   
59000000  -12.46    153.9    26.41   -55.738   -51.689    121.62   -11.818   -2.9594   
60000000  -12.449    153.16    26.424   -57.137   -50.638    156.52   -11.775   -3.2025   
61000000  -12.439    151.77    26.42   -58.428   -51.341    118.95   -11.762   -3.6488   
62000000  -12.415    151.45    26.432   -59.797   -51.827    116.78   -11.784   -4.1048   
63000000  -12.377    150.52    26.442   -61.157   -52.777    125.39   -11.757   -4.2476   
64000000  -12.334    149.39    26.447   -62.503   -51.126    136.42   -11.657   -4.3877   
65000000  -12.295    148.42    26.458   -63.894   -54.275    118   -11.686   -4.904   
66000000  -12.256    147.64    26.451   -65.183   -52.876    126.25   -11.675   -5.2707   
67000000  -12.293    146.87    26.459   -66.522   -53.292    116.64   -11.67   -5.8832   
68000000  -12.331    145.74    26.459   -67.786   -52.692    116.97   -11.641   -6.2004   
69000000  -12.221    144.82    26.469   -69.16   -53.143    114.54   -11.622   -6.46   
70000000  -12.22    144.14    26.484   -70.447   -51.253    112.19   -11.609   -6.7195   
71000000  -12.229    143.35    26.48   -71.76   -54.662    139.31   -11.599   -7.2908   
72000000  -12.206    142.91    26.493   -73.074   -50.98    100.02   -11.6   -7.56   
73000000  -12.222    142.1    26.483   -74.388   -50.632    111.01   -11.6   -8.0241   
74000000  -12.248    141.17    26.493   -75.699   -52.911    124.47   -11.536   -8.2178   
75000000  -12.157    140.71    26.5   -76.903   -49.781    109.49   -11.506   -8.6737   
76000000  -12.168    139.54    26.493   -78.164   -51.156    100.15   -11.487   -8.8481   
77000000  -12.177    138.48    26.493   -79.505   -53.034    105.04   -11.502   -9.0088   
78000000  -12.183    137.95    26.513   -80.789   -52.466    114.46   -11.446   -9.4167   
79000000  -12.14    136.83    26.524   -82.116   -52.379    83.237   -11.476   -9.8259   
80000000  -12.156    136.35    26.537   -83.37   -54.423    74.616   -11.419   -10.12   
81000000  -12.132    135.17    26.543   -84.692   -50.244    90.551   -11.427   -10.567   
82000000  -12.167    134.93    26.543   -85.943   -56.904    108.43   -11.394   -10.706   
83000000  -12.123    133.63    26.532   -87.179   -52.151    108.97   -11.399   -11.537   
84000000  -12.155    132.98    26.545   -88.425   -52.926    100.47   -11.373   -12.096   
85000000  -12.135    132.8    26.536   -89.679   -55.949    112.54   -11.371   -12.285   
86000000  -12.118    131.84    26.549   -90.942   -49.985    103   -11.345   -12.369   
87000000  -12.106    130.87    26.552   -92.234   -50.255    115.81   -11.374   -12.956   
88000000  -12.117    130.39    26.561   -93.503   -53.368    115.91   -11.391   -13.322   
89000000  -12.103    129.9    26.557   -94.72   -51.324    104.93   -11.363   -13.589   
90000000  -12.092    128.79    26.568   -96.01   -49.878    117.22   -11.347   -14.149   
91000000  -12.16    127.91    26.556   -97.252   -58.401    93.484   -11.312   -14.411   
92000000  -12.182    127.47    26.566   -98.488   -54.369    123.78   -11.253   -14.778   
93000000  -12.124    126.59    26.581   -99.761   -53.786    73.338   -11.265   -15.264   
94000000  -12.118    125.8    26.578   -101.02   -52.852    73.356   -11.239   -15.522   
95000000  -12.166    125.43    26.568   -102.25   -54.08    94.587   -11.273   -15.881   
96000000  -12.114    124.26    26.577   -103.46   -51.042    97.667   -11.258   -16.324   
97000000  -12.15    123.74    26.581   -104.72   -58.442    72.154   -11.263   -17.115   
98000000  -12.139    122.75    26.576   -105.98   -52.808    97.574   -11.247   -17.17   
99000000  -12.155    122.16    26.582   -107.15   -51.113    85.426   -11.203   -17.547   
100000000  -12.158    121.34    26.588   -108.39   -51.196    97.072   -11.247   -18.041   
101000000  -12.179    120.81    26.589   -109.61   -52.685    69.866   -11.263   -18.566   
102000000  -12.138    119.84    26.598   -110.83   -52.123    83.827   -11.185   -18.91   
103000000  -12.131    119.31    26.591   -112.02   -57.557    84.922   -11.271   -19.119   
104000000  -12.151    118.71    26.607   -113.27   -50.451    66.437   -11.227   -19.605   
105000000  -12.145    118.04    26.603   -114.5   -52.448    79.957   -11.219   -20.182   
106000000  -12.084    117.24    26.607   -115.68   -52.607    52.141   -11.207   -20.587   
107000000  -12.192    116.49    26.616   -116.99   -53.688    77.921   -11.207   -20.766   
108000000  -12.151    115.71    26.618   -118.19   -53.512    92.9   -11.191   -21.042   
109000000  -12.17    114.92    26.627   -119.31   -53.206    56.959   -11.194   -21.599   
110000000  -12.161    114.27    26.629   -120.61   -54.336    67.754   -11.21   -21.827   
111000000  -12.186    113.37    26.639   -121.73   -54.777    37.818   -11.19   -22.74   
112000000  -12.206    112.99    26.634   -123.06   -49.414    81.118   -11.189   -22.99   
113000000  -12.199    112.21    26.646   -124.15   -51.523    79.684   -11.187   -23.353   
114000000  -12.217    111.55    26.652   -125.45   -50.202    60.899   -11.208   -24.068   
115000000  -12.243    110.88    26.664   -126.58   -50.028    82.858   -11.155   -24.041   
116000000  -12.215    110.16    26.663   -127.89   -51.564    65.696   -11.211   -24.337   
117000000  -12.217    109.59    26.679   -129.09   -51.889    56.538   -11.223   -25.107   
118000000  -12.236    108.79    26.684   -130.23   -51.507    59.436   -11.221   -25.255   
119000000  -12.256    108.1    26.686   -131.46   -51.819    63.767   -11.235   -25.921   
120000000  -12.249    107.49    26.692   -132.69   -51.466    57.866   -11.284   -26.138   
121000000  -12.266    106.69    26.682   -134.05   -53.605    65.943   -11.152   -26.796   
122000000  -12.284    106.03    26.691   -135.06   -52.436    60.279   -11.282   -26.918   
123000000  -12.265    105.43    26.694   -136.3   -52.181    54.566   -11.276   -27.429   
124000000  -12.275    104.76    26.696   -137.56   -51.839    42.653   -11.257   -27.613   
125000000  -12.274    104.36    26.704   -138.71   -51.624    67.939   -11.299   -28.077   
126000000  -12.304    103.66    26.703   -139.9   -53.979    54.25   -11.218   -28.915   
127000000  -12.322    103.02    26.726   -141.16   -53.466    51.634   -11.261   -29.312   
128000000  -12.289    102.42    26.717   -142.36   -52.657    61.655   -11.326   -29.653   
129000000  -12.323    101.41    26.735   -143.61   -50.571    48.215   -11.325   -29.776   
130000000  -12.32    101.42    26.743   -144.79   -53.226    60.316   -11.347   -30.497   
131000000  -12.332    100.63    26.74   -145.98   -51.42    61.014   -11.367   -30.718   
132000000  -12.368    99.868    26.754   -147.17   -52.575    54.325   -11.344   -31.442   
133000000  -12.398    99.29    26.744   -148.45   -57.209    74.52   -11.358   -31.963   
134000000  -12.34    98.785    26.763   -149.64   -56.341    64.01   -11.373   -32.206   
135000000  -12.405    97.957    26.766   -150.88   -53.193    34.314   -11.421   -32.52   
136000000  -12.353    97.358    26.768   -152.12   -58.021    48.62   -11.419   -33.017   
137000000  -12.472    96.752    26.776   -153.29   -52.506    18.804   -11.399   -33.322   
138000000  -12.386    95.85    26.783   -154.51   -53.187    57.873   -11.459   -33.512   
139000000  -12.422    95.258    26.783   -155.74   -52.637    36.778   -11.436   -34.211   
140000000  -12.427    94.883    26.792   -156.92   -56.243    51.17   -11.485   -34.562   
141000000  -12.464    94.447    26.799   -158.18   -55.002    12.831   -11.499   -34.805   
142000000  -12.427    93.367    26.814   -159.39   -50.802    55.936   -11.456   -35.424   
143000000  -12.458    93.333    26.819   -160.61   -55.366    11.989   -11.484   -35.744   
144000000  -12.474    92.425    26.826   -161.81   -54.018    32.044   -11.506   -36.319   
145000000  -12.48    91.545    26.834   -163.03   -51.579    38.784   -11.594   -36.712   
146000000  -12.498    91.268    26.849   -164.22   -54.573    34.291   -11.587   -36.995   
147000000  -12.507    90.753    26.849   -165.38   -53.291    12.865   -11.591   -37.332   
148000000  -12.52    90.088    26.847   -166.62   -53.841    42.841   -11.598   -37.657   
149000000  -12.471    89.541    26.872   -167.83   -51.464    1.6878   -11.607   -38.293   
150000000  -12.556    88.43    26.869   -169.01   -52.559    36.021   -11.683   -38.589   
151000000  -12.521    87.768    26.883   -170.26   -53.914    32.254   -11.669   -39.034   
152000000  -12.588    87.713    26.897   -171.46   -52.14    28.596   -11.753   -39.457   
153000000  -12.587    86.609    26.902   -172.64   -52.527    23.86   -11.774   -39.519   
154000000  -12.571    86.497    26.915   -173.91   -54.793    19.936   -11.802   -40.276   
155000000  -12.584    85.285    26.921   -175.15   -52.939    34.279   -11.813   -40.421   
156000000  -12.562    84.836    26.932   -176.29   -53.287    19.281   -11.793   -40.685   
157000000  -12.564    84.17    26.95   -177.53   -50.93    4.0855   -11.848   -40.957   
158000000  -12.664    83.717    26.954   -178.64   -52.997    25.149   -11.847   -41.821   
159000000  -12.646    82.851    26.967   -179.88   -53.264    8.7575   -11.845   -41.972   
160000000  -12.622    82.399    26.982    178.84   -51.191    8.3112   -11.969   -42.455   
161000000  -12.647    81.84    27    177.65   -50.604   -2.9155   -11.986   -42.523   
162000000  -12.65    81.149    27.013    176.47   -50.654    3.4772   -11.957   -43.277   
163000000  -12.744    80.623    27.025    175.26   -53.044    34.184   -12.062   -43.687   
164000000  -12.765    80.03    27.044    174.04   -54.8    37.448   -12.08   -44.043   
165000000  -12.815    79.338    27.063    172.83   -52.976    16.876   -12.076   -44.249   
166000000  -12.745    78.257    27.076    171.53   -51.868   -.3831   -12.101   -44.074   
167000000  -12.856    78.219    27.086    170.35   -55.319    45.492   -12.152   -44.922   
168000000  -12.85    77.437    27.106    169.12   -51.336   -1.7496   -12.175   -45.203   
169000000  -12.871    77.142    27.123    167.81   -53.08    9.6927   -12.18   -45.365   
170000000  -12.879    76.418    27.134    166.65   -54.242    13.705   -12.264   -46.388   
171000000  -12.895    75.76    27.137    165.38   -53.084   -3.7175   -12.307   -45.904   
172000000  -12.954    75.402    27.159    164.11   -55.031    4.205   -12.3   -46.682   
173000000  -12.936    74.648    27.176    162.85   -58.301    24.796   -12.424   -46.951   
174000000  -12.992    74.012    27.189    161.65   -52.926   -21.26   -12.405   -47.207   
175000000  -13.002    73.249    27.207    160.38   -51.554    9.9014   -12.404   -47.178   
176000000  -12.991    72.791    27.225    159.04   -56.246    9.0527   -12.457   -48.117   
177000000  -13.032    72.364    27.236    157.88   -55.648    6.0905   -12.588   -48.404   
178000000  -13.096    72.021    27.253    156.62   -54.7    6.3789   -12.575   -48.441   
179000000  -13.092    71.017    27.259    155.38   -52.237   -4.5648   -12.57   -48.689   
180000000  -13.056    70.464    27.271    154.08   -53.825   -7.722   -12.662   -49.058   
181000000  -13.194    70.041    27.282    152.83   -53.06   -21.629   -12.691   -49.272   
182000000  -13.188    69.543    27.282    151.5   -53.031   -5.4794   -12.73   -49.64   
183000000  -13.167    68.805    27.306    150.29   -59.151    25.896   -12.764   -49.686   
184000000  -13.192    68.722    27.322    149.05   -53.783   -22.095   -12.791   -50.452   
185000000  -13.19    68.533    27.331    147.75   -54.074   -34.511   -12.816   -50.525   
186000000  -13.313    67.409    27.341    146.48   -51.991   -19.148   -12.916   -50.96   
187000000  -13.272    67.12    27.355    145.08   -54.791   -16.245   -12.881   -51.088   
188000000  -13.27    66.524    27.368    143.88   -55.425   -23.449   -12.988   -51.549   
189000000  -13.402    66.338    27.385    142.66   -52.172   -23.222   -12.988   -51.623   
190000000  -13.37    65.605    27.395    141.34   -53.487   -18.461   -13.065   -52.244   
191000000  -13.335    65.005    27.404    140.02   -52.066   -39.492   -13.082   -52.366   
192000000  -13.428    64.384    27.417    138.69   -51.583   -27.352   -13.137   -52.266   
193000000  -13.507    64.053    27.43    137.39   -50.962   -22.427   -13.199   -52.773   
194000000  -13.607    63.382    27.456    136.15   -51.454   -28.012   -13.223   -52.756   
195000000  -13.545    62.948    27.468    134.82   -54.701   -22.416   -13.273   -53.244   
196000000  -13.617    62.739    27.488    133.54   -53.277   -45.382   -13.32   -53.02   
197000000  -13.627    62.056    27.493    132.18   -52.507   -26.657   -13.335   -52.976   
198000000  -13.689    61.526    27.515    130.86   -54.056   -9.5169   -13.393   -53.822   
199000000  -13.757    60.889    27.54    129.54   -58.19   -20.768   -13.412   -53.329   
200000000  -13.796    60.164    27.539    128.27   -52.073   -50.674   -13.467   -54.054   
201000000  -13.871    59.918    27.553    126.97   -56.544   -33.776   -13.505   -54.127   
202000000  -13.87    59.123    27.563    125.72   -54.211   -43.382   -13.471   -54.087   
203000000  -13.923    59.186    27.574    124.41   -54.207   -15.344   -13.491   -54.353   
204000000  -13.936    58.535    27.587    123.07   -53.018   -14.473   -13.631   -55.228   
205000000  -13.949    58.245    27.604    121.8   -53.036   -25.44   -13.679   -55.006   
206000000  -13.973    57.839    27.619    120.48   -50.588   -39.861   -13.729   -54.547   
207000000  -14.037    57.231    27.618    119.17   -49.975   -37.358   -13.825   -55.221   
208000000  -14.067    56.733    27.628    117.82   -51.058   -26.765   -13.763   -55.271   
209000000  -14.107    56.728    27.64    116.51   -58.497   -11.251   -13.779   -55.959   
210000000  -14.154    55.993    27.66    115.22   -52.428   -49.988   -13.864   -55.524   
211000000  -14.229    55.72    27.674    113.97   -54.521   -42.057   -13.789   -55.783   
212000000  -14.248    55.25    27.692    112.63   -53.284   -35.309   -13.824   -55.831   
213000000  -14.33    54.815    27.707    111.25   -52.886   -41.63   -13.98   -55.592   
214000000  -14.377    55    27.715    109.95   -54.372   -36.906   -14.021   -56.526   
215000000  -14.403    54.241    27.731    108.58   -53.345   -47.129   -14.024   -56.339   
216000000  -14.441    54.082    27.744    107.29   -54.016   -41.358   -14.057   -56.529   
217000000  -14.473    53.407    27.748    105.81   -52.741   -44.209   -14.054   -56.603   
218000000  -14.558    53.407    27.763    104.55   -52.16   -67.56   -14.101   -56.504   
219000000  -14.611    53.045    27.787    103.31   -53.502   -54.576   -14.169   -57.284   
220000000  -14.649    52.578    27.794    101.86   -54.983   -27.55   -14.225   -56.942   
221000000  -14.792    52.791    27.801    100.5   -55.748   -48.715   -14.221   -57.119   
222000000  -14.819    52.155    27.822    99.218   -57.047   -43.082   -14.215   -57.14   
223000000  -14.892    51.828    27.834    97.872   -55.696   -80.435   -14.255   -57.294   
224000000  -14.918    51.38    27.842    96.431   -53.501   -104.94   -14.308   -57.855   
225000000  -14.914    51.108    27.851    95.036   -53.332   -35.399   -14.308   -56.755   
226000000  -15.088    51.152    27.863    93.702   -54.297   -77.726   -14.466   -57.886   
227000000  -15.153    51.058    27.876    92.346   -52.88   -55.282   -14.328   -57.526   
228000000  -15.142    50.743    27.89    90.92   -53.891   -68.188   -14.337   -57.729   
229000000  -15.303    51.051    27.902    89.536   -50.731   -53.84   -14.363   -57.919   
230000000  -15.357    50.536    27.904    88.163   -55.785   -48.777   -14.43   -57.872   
231000000  -15.327    50.624    27.913    86.696   -52.368   -66.378   -14.433   -58.262   
232000000  -15.432    50.674    27.92    85.38   -50.06   -79.449   -14.488   -58.521   
233000000  -15.437    49.603    27.932    83.993   -52.865   -76.447   -14.512   -58.663   
234000000  -15.536    50.146    27.926    82.588   -53.404   -72.69   -14.451   -58.439   
235000000  -15.612    49.811    27.947    81.183   -51.985   -75.922   -14.562   -58.66   
236000000  -15.756    49.334    27.95    79.794   -56.35   -68.493   -14.459   -58.387   
237000000  -15.814    50.124    27.949    78.345   -54.359   -69.826   -14.557   -58.569   
238000000  -15.82    49.966    27.965    76.943   -52.486   -87.676   -14.607   -58.648   
239000000  -15.904    49.925    27.961    75.532   -54.252   -83.896   -14.548   -59.034   
240000000  -16.024    50.316    27.973    74.126   -53.792   -74.233   -14.517   -59.431   
241000000  -15.998    50.751    27.975    72.735   -52.275   -71.536   -14.621   -59.571   
242000000  -16.129    50.886    27.971    71.25   -53.359   -94.919   -14.643   -59.609   
243000000  -16.249    51.507    27.977    69.912   -53.779   -89.993   -14.617   -59.76   
244000000  -16.275    51.231    27.981    68.439   -50.664   -87.568   -14.715   -60.068   
245000000  -16.269    51.45    27.98    67.033   -51.431   -95.1   -14.684   -60.084   
246000000  -16.408    52.313    27.975    65.584   -54.247   -90.03   -14.62   -59.939   
247000000  -16.356    52.295    27.984    64.122   -52.134   -97.601   -14.623   -60.712   
248000000  -16.479    53.656    27.979    62.818   -56.535   -83.595   -14.646   -60.726   
249000000  -16.537    54.142    27.975    61.411   -59.272   -75.543   -14.636   -61.164   
250000000  -16.524    55.179    27.98    59.946   -54.743   -85.187   -14.641   -61.398   
