! Network Analyzer HP8753D.06.12 Serial No. 3410A09394
! 
! 12 Jun 2019  13:41:45
# HZ  S  DB R 50
50000000  -12.773    162.52    26.267   -43.197   -53.228    145.36   -11.928    .8075   
51000000  -12.677    161.25    26.27   -44.729   -50.322    153.62   -11.876    .4188   
52000000  -12.666    160.29    26.279   -46.166   -52.666    135.61   -11.838    .0686   
53000000  -12.657    159.43    26.281   -47.63   -51.629    137.26   -11.86    .2705   
54000000  -12.595    159    26.286   -49.007   -52.205    146.7   -11.831   -.5809   
55000000  -12.606    157.81    26.291   -50.451   -53.352    132.32   -11.845   -.7086   
56000000  -12.563    156.23    26.299   -51.895   -50.824    125   -11.813   -1.019   
57000000  -12.525    155.95    26.297   -53.259   -51.585    121.3   -11.787   -1.6672   
58000000  -12.489    155.18    26.304   -54.649   -53.036    131.74   -11.73   -2.1451   
59000000  -12.468    154.54    26.306   -56.006   -49.739    127.01   -11.785   -2.3401   
60000000  -12.476    153.32    26.316   -57.404   -54.063    129.77   -11.711   -2.3428   
61000000  -12.471    152.29    26.312   -58.736   -50.162    132.79   -11.723   -3.0418   
62000000  -12.394    151.72    26.321   -60.087   -52.754    102.45   -11.65   -3.69   
63000000  -12.38    150.81    26.329   -61.437   -52.082    129.06   -11.639   -3.9619   
64000000  -12.323    149.89    26.333   -62.769   -53.033    136.26   -11.671   -3.9304   
65000000  -12.27    149.06    26.342   -64.167   -52.079    121.14   -11.581   -4.5456   
66000000  -12.281    148.39    26.334   -65.484   -50.207    121.57   -11.527   -4.8766   
67000000  -12.312    147.33    26.343   -66.804   -49.719    135.06   -11.541   -5.246   
68000000  -12.274    146.4    26.34   -68.047   -52.265    128.74   -11.514   -5.8186   
69000000  -12.25    145.58    26.351   -69.445   -50.538    118.13   -11.531   -6.0287   
70000000  -12.214    144.67    26.361   -70.727   -51.738    105.32   -11.569   -6.199   
71000000  -12.232    144.02    26.358   -72.028   -54.974    115.12   -11.518   -6.9145   
72000000  -12.194    143.34    26.372   -73.346   -52.058    111.72   -11.489   -7.2647   
73000000  -12.25    142.61    26.36   -74.652   -52.053    127.99   -11.454   -7.3938   
74000000  -12.266    141.84    26.37   -75.962   -53.338    114.75   -11.423   -7.906   
75000000  -12.154    140.92    26.373   -77.16   -52.129    97.988   -11.437   -8.3345   
76000000  -12.143    140.22    26.366   -78.429   -53.002    110.8   -11.405   -8.5899   
77000000  -12.215    139.1    26.365   -79.759   -52.322    97.262   -11.394   -8.8934   
78000000  -12.184    138.48    26.385   -81.063   -52.185    110.83   -11.369   -9.6309   
79000000  -12.169    137.82    26.393   -82.399   -52.483    96.203   -11.373   -9.9742   
80000000  -12.094    136.98    26.409   -83.628   -50.403    104.58   -11.377   -10.249   
81000000  -12.176    135.91    26.412   -84.945   -54.431    122.01   -11.28   -10.701   
82000000  -12.126    135.27    26.407   -86.171   -54.434    102.9   -11.322   -10.815   
83000000  -12.081    134.23    26.4   -87.418   -49.276    92.578   -11.295   -11.6   
84000000  -12.131    133.7    26.412   -88.656   -55.357    103.93   -11.292   -12.058   
85000000  -12.13    133    26.4   -89.885   -53.612    75.38   -11.261   -12.2   
86000000  -12.142    132.2    26.412   -91.174   -53.567    94.98   -11.278   -12.684   
87000000  -12.13    131.36    26.416   -92.428   -53.709    88.775   -11.25   -13.133   
88000000  -12.107    130.98    26.427   -93.708   -53.241    91.7   -11.295   -13.457   
89000000  -12.145    130.15    26.421   -94.952   -56.855    108.98   -11.265   -14.078   
90000000  -12.163    129.51    26.432   -96.191   -55.239    76.726   -11.231   -14.539   
91000000  -12.173    128.58    26.417   -97.434   -51.204    100.95   -11.191   -14.854   
92000000  -12.177    127.93    26.429   -98.689   -55.461    81.03   -11.169   -15.289   
93000000  -12.106    127.13    26.442   -99.939   -55.001    70.722   -11.178   -15.786   
94000000  -12.119    126.18    26.44   -101.2   -54.235    85.14   -11.165   -16.195   
95000000  -12.137    125.99    26.427   -102.42   -53.825    89.714   -11.184   -16.611   
96000000  -12.096    124.95    26.439   -103.61   -52.699    86.484   -11.177   -17.025   
97000000  -12.1    124.3    26.444   -104.88   -50.138    93.875   -11.198   -17.176   
98000000  -12.148    123.44    26.44   -106.14   -52.412    72.328   -11.197   -17.86   
99000000  -12.132    122.99    26.442   -107.29   -52.523    87.02   -11.147   -18.04   
100000000  -12.129    122.32    26.446   -108.54   -57.446    93.315   -11.181   -18.686   
101000000  -12.155    121.5    26.451   -109.76   -54.745    62.707   -11.211   -19.17   
102000000  -12.136    120.47    26.454   -110.97   -50.704    88.117   -11.135   -19.572   
103000000  -12.127    120.01    26.456   -112.15   -52.631    70.399   -11.184   -19.841   
104000000  -12.125    119.1    26.464   -113.39   -51.853    74.022   -11.149   -20.343   
105000000  -12.096    118.73    26.465   -114.59   -55.053    61.573   -11.169   -20.954   
106000000  -12.066    117.82    26.466   -115.79   -51.692    76.647   -11.149   -21.282   
107000000  -12.118    117.12    26.479   -117.07   -54.253    87.624   -11.172   -21.668   
108000000  -12.101    116.25    26.481   -118.3   -59.793    79.681   -11.146   -21.776   
109000000  -12.148    115.65    26.487   -119.43   -51.635    62.662   -11.162   -22.603   
110000000  -12.154    114.8    26.491   -120.69   -55.74    51.516   -11.231   -22.755   
111000000  -12.169    114.16    26.5   -121.8   -56.506    78.317   -11.157   -23.453   
112000000  -12.129    113.36    26.498   -123.13   -54.94    64.854   -11.172   -23.761   
113000000  -12.114    112.79    26.508   -124.22   -53.331    63.773   -11.178   -24.07   
114000000  -12.181    112    26.516   -125.5   -55.016    72.442   -11.206   -24.645   
115000000  -12.221    111.47    26.526   -126.64   -50.335    66.239   -11.196   -25.152   
116000000  -12.15    110.61    26.528   -127.94   -55.562    68.28   -11.215   -25.508   
117000000  -12.197    110.28    26.544   -129.14   -50.889    66.337   -11.192   -26.253   
118000000  -12.174    109.42    26.547   -130.28   -51.761    66.785   -11.21   -26.461   
119000000  -12.219    108.34    26.555   -131.5   -54.93    65.148   -11.279   -26.893   
120000000  -12.207    108.37    26.561   -132.71   -50.162    57.151   -11.272   -27.289   
121000000  -12.231    107.35    26.551   -134.06   -51.457    61.21   -11.232   -27.727   
122000000  -12.248    106.91    26.56   -135.13   -50.708    62.637   -11.297   -28.181   
123000000  -12.236    106.18    26.562   -136.34   -53.372    60.248   -11.255   -28.187   
124000000  -12.232    105.57    26.568   -137.58   -52.898    59.023   -11.289   -28.727   
125000000  -12.234    104.88    26.575   -138.74   -53.604    44.029   -11.316   -29.279   
126000000  -12.246    104.45    26.576   -139.96   -53.788    60.263   -11.323   -30.199   
127000000  -12.275    103.68    26.6   -141.18   -52.923    48.024   -11.338   -30.267   
128000000  -12.233    102.97    26.591   -142.38   -52.681    33.389   -11.369   -30.545   
129000000  -12.234    102.36    26.61   -143.63   -50.591    62.584   -11.412   -30.981   
130000000  -12.262    101.86    26.621   -144.82   -52.872    40.836   -11.403   -31.605   
131000000  -12.267    101.33    26.617   -146.01   -53.96    50.326   -11.421   -31.778   
132000000  -12.322    100.81    26.632   -147.19   -54.129    60.036   -11.429   -32.55   
133000000  -12.315    99.993    26.621   -148.46   -56.264    65.878   -11.49   -32.926   
134000000  -12.314    99.349    26.647   -149.66   -55.083    50.313   -11.484   -33.434   
135000000  -12.362    98.234    26.648   -150.89   -49.876    52.379   -11.485   -33.453   
136000000  -12.28    98.032    26.655   -152.14   -55.871    52.343   -11.536   -34.253   
137000000  -12.313    97.436    26.658   -153.34   -55.509    63.387   -11.526   -34.362   
138000000  -12.359    96.43    26.672   -154.56   -50.301    26.886   -11.517   -34.49   
139000000  -12.368    95.872    26.674   -155.77   -52.739    41.705   -11.507   -35.618   
140000000  -12.382    95.279    26.679   -156.95   -53.094    50.444   -11.554   -35.846   
141000000  -12.348    94.973    26.686   -158.19   -54.504    11.161   -11.612   -36.248   
142000000  -12.374    94.316    26.705   -159.42   -51.443    34.346   -11.596   -36.286   
143000000  -12.357    93.501    26.71   -160.62   -50.638    35.107   -11.681   -36.653   
144000000  -12.416    92.851    26.715   -161.84   -52.203    53.969   -11.658   -37.139   
145000000  -12.359    92.232    26.725   -163.06   -53.454    9.532   -11.749   -37.713   
146000000  -12.453    91.743    26.745   -164.25   -49.69    28.819   -11.721   -37.878   
147000000  -12.451    91.258    26.742   -165.43   -52.246    56.927   -11.772   -38.356   
148000000  -12.472    90.621    26.747   -166.69   -51.275    46.066   -11.735   -38.997   
149000000  -12.433    89.854    26.772   -167.89   -51.988    34.014   -11.749   -39.052   
150000000  -12.475    89.268    26.765   -169.08   -53.054    17.428   -11.863   -39.451   
151000000  -12.49    88.48    26.784   -170.32   -53.01    17.427   -11.841   -39.967   
152000000  -12.515    88.065    26.798   -171.52   -51.501    41.839   -11.879   -40.118   
153000000  -12.521    87.209    26.801   -172.72   -51.902    29.247   -11.973   -40.437   
154000000  -12.49    86.758    26.815   -173.97   -51.875    34.917   -11.963   -41.103   
155000000  -12.496    85.799    26.821   -175.2   -53.232    14.466   -12.044   -41.149   
156000000  -12.503    85.085    26.835   -176.38   -52.739    35.005   -12.016   -41.63   
157000000  -12.53    84.78    26.853   -177.63   -56.732    42.258   -12.042   -41.738   
158000000  -12.555    84.247    26.858   -178.75   -48.514    10.322   -12.093   -42.584   
159000000  -12.56    83.154    26.874   -180   -54.271    18.316   -12.039   -42.648   
160000000  -12.509    82.733    26.889    178.71   -49.617    13.818   -12.193   -43.304   
161000000  -12.605    82.23    26.906    177.53   -52.054    28.6   -12.158   -43.699   
162000000  -12.581    81.815    26.917    176.34   -54.392   -7.5627   -12.175   -43.547   
163000000  -12.637    80.899    26.935    175.12   -53.696    26.255   -12.284   -43.999   
164000000  -12.666    80.152    26.948    173.88   -56.669    4.9136   -12.314   -44.349   
165000000  -12.706    79.553    26.973    172.7   -52.346    17.628   -12.302   -44.577   
166000000  -12.673    78.904    26.984    171.37   -51.574    11.629   -12.368   -44.736   
167000000  -12.794    78.692    26.992    170.18   -55.677    62.158   -12.326   -45.6   
168000000  -12.751    77.726    27.015    168.91   -49.609   -6.2224   -12.426   -45.678   
169000000  -12.795    77.281    27.032    167.63   -51.319    8.7396   -12.417   -45.916   
170000000  -12.8    76.664    27.042    166.44   -58.205   -16.497   -12.44   -46.305   
171000000  -12.836    75.987    27.048    165.17   -53.879   -15.105   -12.498   -46.171   
172000000  -12.835    75.31    27.07    163.88   -52.582    11.328   -12.497   -46.829   
173000000  -12.864    74.965    27.089    162.64   -55.741    21.23   -12.636   -47.218   
174000000  -12.92    73.97    27.098    161.41   -50.442    4.4536   -12.63   -47.222   
175000000  -12.95    73.854    27.117    160.14   -56.262   -4.1226   -12.635   -47.587   
176000000  -12.925    73.154    27.136    158.81   -55.843    1.9528   -12.705   -48.112   
177000000  -12.935    72.379    27.146    157.61   -52.007    17.775   -12.807   -48.282   
178000000  -12.968    72.066    27.161    156.35   -55.142    5.5893   -12.82   -48.593   
179000000  -13.021    71.7    27.168    155.1   -53.399   -22.739   -12.849   -48.616   
180000000  -12.977    70.473    27.177    153.8   -55.843   -.8390   -12.848   -49.123   
181000000  -13.045    70.457    27.192    152.55   -51.998   -4.9452   -12.929   -49.064   
182000000  -13.111    69.662    27.191    151.23   -51.649   -12.634   -12.953   -49.388   
183000000  -13.144    69.241    27.217    149.98   -54.51   -19.725   -13.006   -49.904   
184000000  -13.109    68.692    27.232    148.73   -59.752   -50.933   -12.986   -50.551   
185000000  -13.103    68.188    27.233    147.44   -51.343   -2.2591   -13.042   -50.072   
186000000  -13.235    67.037    27.249    146.14   -50.694   -23.665   -13.108   -50.455   
187000000  -13.158    66.907    27.264    144.74   -53.25   -16.532   -13.096   -50.751   
188000000  -13.218    66.44    27.275    143.51   -56.722   -34.287   -13.215   -51.165   
189000000  -13.282    66.01    27.292    142.33   -52.194   -25.501   -13.209   -51.195   
190000000  -13.314    65.903    27.303    140.98   -50.61   -35.225   -13.244   -52.018   
191000000  -13.303    65.139    27.312    139.65   -52.025   -28.981   -13.279   -51.515   
192000000  -13.33    64.031    27.321    138.31   -54.967   -11.879   -13.326   -51.825   
193000000  -13.438    64.043    27.337    137   -49.838   -20.884   -13.366   -52.472   
194000000  -13.541    63.228    27.364    135.77   -51.07   -2.9979   -13.378   -52.229   
195000000  -13.489    63.122    27.371    134.42   -52.504   -40.264   -13.496   -52.387   
196000000  -13.588    62.522    27.392    133.13   -53.385   -29.604   -13.48   -52.579   
197000000  -13.61    61.787    27.395    131.77   -54.716   -17.764   -13.5   -52.348   
198000000  -13.595    61.46    27.418    130.44   -52.356   -40.737   -13.534   -52.774   
199000000  -13.665    60.965    27.441    129.14   -50.081   -22.974   -13.578   -53.111   
200000000  -13.721    60.173    27.439    127.86   -56.114   -57.626   -13.612   -53.236   
201000000  -13.764    59.814    27.455    126.54   -55.36   -18.82   -13.648   -53.146   
202000000  -13.805    59.409    27.461    125.28   -51.882   -38.636   -13.679   -53.681   
203000000  -13.793    58.888    27.469    123.95   -50.823   -26.987   -13.648   -53.737   
204000000  -13.882    58.255    27.485    122.63   -53.859   -7.056   -13.74   -53.899   
205000000  -13.933    57.924    27.498    121.34   -51.54   -41.57   -13.732   -53.944   
206000000  -14.006    57.329    27.511    120   -57.7   -36.653   -13.812   -54.294   
207000000  -14.014    57.343    27.51    118.71   -54.597   -31.88   -13.828   -54.609   
208000000  -14.004    56.731    27.519    117.36   -51.875   -29.796   -13.914   -54.645   
209000000  -14.046    56.306    27.531    116.02   -55.205   -43.15   -13.852   -54.628   
210000000  -14.151    55.581    27.548    114.74   -52.113   -54.75   -13.944   -54.426   
211000000  -14.22    55.449    27.56    113.48   -53.075   -32.97   -13.943   -55.02   
212000000  -14.253    55.195    27.582    112.13   -54.105   -38.673   -13.957   -54.906   
213000000  -14.358    54.386    27.592    110.77   -51.63   -74.82   -14.033   -55.142   
214000000  -14.346    54.472    27.604    109.44   -52.877   -44.149   -14.151   -55.245   
215000000  -14.394    54.15    27.616    108.08   -56.359   -47.747   -14.139   -56.08   
216000000  -14.451    53.865    27.628    106.78   -52.21   -57.45   -14.088   -55.502   
217000000  -14.394    53.34    27.63    105.3   -51.214   -42.545   -14.102   -55.769   
218000000  -14.553    53.241    27.647    104.06   -53.913   -77.932   -14.12   -56.015   
219000000  -14.645    52.598    27.668    102.8   -52.07   -59.45   -14.152   -56.294   
220000000  -14.668    52.348    27.673    101.34   -55.874   -65.441   -14.233   -56.397   
221000000  -14.745    52.384    27.676    99.985   -54.753   -55.3   -14.253   -56.341   
222000000  -14.829    51.52    27.698    98.675   -52.516   -35.513   -14.23   -56.317   
223000000  -14.907    51.294    27.707    97.339   -53.285   -86.388   -14.197   -56.273   
224000000  -14.955    50.567    27.717    95.913   -52.389   -50.078   -14.247   -56.672   
225000000  -14.912    50.536    27.724    94.514   -52.37   -37.634   -14.232   -56.306   
226000000  -15.074    50.404    27.732    93.176   -53.466   -69.214   -14.367   -56.672   
227000000  -15.125    50.794    27.745    91.835   -50.735   -42.896   -14.321   -56.7   
228000000  -15.183    49.918    27.757    90.413   -52.803   -49.789   -14.305   -57.39   
229000000  -15.284    50.554    27.769    89.01   -50.547   -57.728   -14.381   -57.663   
230000000  -15.318    50.219    27.771    87.639   -53.089   -79.941   -14.441   -57.535   
231000000  -15.369    49.942    27.776    86.188   -52.469   -74.084   -14.381   -57.902   
232000000  -15.478    50.092    27.784    84.872   -53.006   -78.078   -14.418   -57.846   
233000000  -15.568    49.896    27.794    83.473   -49.487   -54.043   -14.339   -58.195   
234000000  -15.629    49.466    27.787    82.079   -52.472   -60.649   -14.443   -58.449   
235000000  -15.64    49.109    27.807    80.664   -59.135   -72.161   -14.435   -58.267   
236000000  -15.686    49.086    27.809    79.272   -55.42   -79.665   -14.439   -58.255   
237000000  -15.784    49.151    27.806    77.819   -58.379   -63.59   -14.51   -58.385   
238000000  -15.919    49.93    27.822    76.437   -53.854   -83.272   -14.503   -58.705   
239000000  -15.981    49.774    27.819    75.057   -57.887   -54.358   -14.485   -58.589   
240000000  -16.071    49.807    27.824    73.622   -54.565   -62.578   -14.522   -59.448   
241000000  -16.061    49.841    27.826    72.246   -52.202   -64.076   -14.559   -59.479   
242000000  -16.141    50.521    27.819    70.762   -52.393   -83.584   -14.588   -59.365   
243000000  -16.288    50.746    27.826    69.449   -55.344   -79.389   -14.568   -59.782   
244000000  -16.391    51.141    27.826    67.971   -51.612   -77.823   -14.594   -59.996   
245000000  -16.426    51.535    27.825    66.562   -53.915   -77.127   -14.616   -60.322   
246000000  -16.462    51.655    27.819    65.148   -50.996   -80.181   -14.596   -60.213   
247000000  -16.429    52.174    27.827    63.712   -54.917   -93.018   -14.602   -60.709   
248000000  -16.588    52.997    27.819    62.412   -52.67   -84.895   -14.625   -61.367   
249000000  -16.632    53.516    27.817    61.018   -58.254   -70.689   -14.623   -61.543   
250000000  -16.628    54.991    27.819    59.551   -54.257   -91.615   -14.617   -61.521   
