! Network Analyzer HP8753D.06.12 Serial No. 3410A09394
! 
! 12 Jun 2019  09:34:04
# HZ  S  DB R 50
50000000  -12.819    157.49    26.1   -42.907   -53.322    133.53   -11.959   -1.4131   
51000000  -12.769    156.7    26.102   -44.409   -53.545    152.89   -11.958   -1.3376   
52000000  -12.729    155.63    26.115   -45.847   -54.609    116.39   -11.936   -2.1492   
53000000  -12.746    154.68    26.118   -47.304   -49.261    150.48   -11.963   -1.9034   
54000000  -12.688    153.91    26.125   -48.679   -51.606    124.94   -11.958   -2.5433   
55000000  -12.715    152.93    26.129   -50.103   -53.488    157.49   -11.888   -2.5983   
56000000  -12.623    151.56    26.14   -51.564   -57.314    135.36   -11.923   -3.3797   
57000000  -12.627    150.68    26.139   -52.946   -48.309    132.84   -11.885   -3.2849   
58000000  -12.596    149.86    26.147   -54.305   -49.909    122.21   -11.851   -4.1295   
59000000  -12.542    148.98    26.149   -55.666   -51.245    160.74   -11.893   -4.1048   
60000000  -12.59    148.19    26.157   -57.071   -52.382    130.01   -11.849   -4.2902   
61000000  -12.564    146.8    26.157   -58.373   -50.732    132.31   -11.865   -4.8546   
62000000  -12.53    146.13    26.168   -59.74   -49.905    126.62   -11.804   -5.5385   
63000000  -12.467    145.67    26.175   -61.102   -52.037    120.42   -11.792   -5.8681   
64000000  -12.462    144.72    26.184   -62.463   -53.198    116.07   -11.776   -5.6909   
65000000  -12.409    143.39    26.193   -63.848   -52.345    128.06   -11.758   -6.0672   
66000000  -12.408    142.61    26.186   -65.132   -53.116    134.12   -11.768   -6.6866   
67000000  -12.426    141.85    26.193   -66.473   -51.16    125.97   -11.752   -7.1246   
68000000  -12.417    140.73    26.193   -67.75   -56.999    121.65   -11.724   -7.4721   
69000000  -12.441    139.95    26.203   -69.129   -51.901    116.11   -11.724   -7.2908   
70000000  -12.383    138.92    26.214   -70.429   -53.743    108.62   -11.742   -7.8291   
71000000  -12.392    138.41    26.214   -71.724   -51.405    104.22   -11.71   -8.6778   
72000000  -12.315    137.73    26.227   -73.054   -50.316    105.77   -11.672   -8.914   
73000000  -12.393    137.03    26.215   -74.349   -48.969    112.84   -11.707   -9.2697   
74000000  -12.366    136.09    26.227   -75.685   -50.931    107.54   -11.656   -9.3782   
75000000  -12.358    135.47    26.233   -76.858   -50.293    103.21   -11.673   -9.7298   
76000000  -12.316    134.73    26.224   -78.159   -52.781    105.59   -11.665   -9.8026   
77000000  -12.357    133.53    26.22   -79.478   -49.067    99.693   -11.604   -10.507   
78000000  -12.352    132.57    26.242   -80.8   -54.416    124   -11.581   -10.874   
79000000  -12.286    131.87    26.252   -82.116   -51.216    99.731   -11.64   -11.132   
80000000  -12.293    130.93    26.269   -83.385   -53.646    100.99   -11.55   -11.404   
81000000  -12.327    129.78    26.272   -84.695   -56.565    112.28   -11.56   -11.727   
82000000  -12.283    129.67    26.27   -85.938   -48.706    106.08   -11.542   -12.122   
83000000  -12.283    128.59    26.262   -87.193   -51.635    104.16   -11.561   -12.541   
84000000  -12.274    127.77    26.276   -88.447   -50.228    102.26   -11.527   -13.039   
85000000  -12.29    127.18    26.264   -89.67   -51.473    103.91   -11.522   -13.445   
86000000  -12.298    126.58    26.277   -90.964   -56.932    104.73   -11.501   -13.796   
87000000  -12.282    125.67    26.279   -92.251   -50.247    107.8   -11.53   -13.966   
88000000  -12.298    124.8    26.287   -93.521   -52.779    87.376   -11.523   -14.863   
89000000  -12.286    123.89    26.28   -94.763   -52.534    93.639   -11.484   -14.746   
90000000  -12.312    123.38    26.293   -96.014   -54.969    92.532   -11.445   -15.385   
91000000  -12.305    122.56    26.282   -97.254   -51.328    82.873   -11.498   -15.643   
92000000  -12.33    121.61    26.293   -98.514   -55.071    90.775   -11.482   -15.921   
93000000  -12.274    121    26.307   -99.775   -53.09    95.83   -11.452   -16.604   
94000000  -12.294    119.95    26.304   -101.06   -53.671    94.824   -11.421   -16.834   
95000000  -12.324    119.74    26.295   -102.31   -52.68    64.606   -11.456   -17.003   
96000000  -12.258    118.89    26.298   -103.52   -56.017    88.432   -11.454   -17.743   
97000000  -12.279    118.25    26.307   -104.78   -58.589    69.94   -11.431   -18.206   
98000000  -12.292    117.23    26.298   -106.06   -53.555    74.089   -11.476   -18.441   
99000000  -12.335    116.71    26.302   -107.19   -53.389    72.658   -11.399   -18.664   
100000000  -12.282    116.03    26.308   -108.45   -54.915    69.44   -11.434   -19.355   
101000000  -12.307    115.2    26.314   -109.67   -51.378    68.902   -11.409   -19.417   
102000000  -12.253    114.45    26.315   -110.92   -52.666    92.248   -11.404   -19.751   
103000000  -12.292    113.72    26.313   -112.1   -53.428    81.922   -11.424   -20.316   
104000000  -12.299    113.05    26.324   -113.36   -52.352    74.416   -11.438   -20.705   
105000000  -12.266    112.2    26.321   -114.58   -49.353    92.262   -11.414   -21.037   
106000000  -12.209    111.63    26.325   -115.78   -53.096    60.415   -11.391   -21.418   
107000000  -12.295    110.91    26.332   -117.07   -51.378    74.149   -11.399   -21.802   
108000000  -12.276    110.13    26.336   -118.3   -50.997    67.083   -11.401   -22.319   
109000000  -12.329    109.27    26.341   -119.42   -49.733    92.655   -11.358   -22.788   
110000000  -12.329    108.48    26.346   -120.71   -49.12    80.988   -11.415   -22.839   
111000000  -12.315    108.02    26.351   -121.84   -50.316    81.751   -11.41   -23.755   
112000000  -12.271    107.43    26.348   -123.15   -50.213    78.536   -11.404   -23.89   
113000000  -12.28    106.58    26.356   -124.26   -51.399    51.325   -11.453   -24.486   
114000000  -12.343    105.63    26.363   -125.57   -52.326    69.84   -11.461   -24.907   
115000000  -12.291    104.97    26.373   -126.7   -50.892    49.055   -11.432   -25.178   
116000000  -12.315    104.28    26.369   -128.01   -53.714    51.25   -11.459   -25.248   
117000000  -12.283    103.94    26.388   -129.22   -51.865    61.589   -11.443   -25.862   
118000000  -12.314    102.92    26.392   -130.36   -54.459    62.553   -11.431   -26.191   
119000000  -12.347    102.25    26.392   -131.6   -53.064    66.368   -11.442   -26.965   
120000000  -12.317    101.52    26.398   -132.81   -53.372    39.746   -11.467   -27.007   
121000000  -12.267    100.8    26.392   -134.17   -52.083    42.941   -11.437   -27.51   
122000000  -12.392    100.24    26.395   -135.24   -56.198    52.995   -11.427   -27.832   
123000000  -12.315    99.749    26.397   -136.47   -52.938    85.585   -11.469   -28.254   
124000000  -12.352    99.222    26.401   -137.71   -53.291    56.356   -11.439   -28.71   
125000000  -12.355    98.828    26.401   -138.86   -54.385    56.585   -11.454   -28.985   
126000000  -12.311    98.164    26.403   -140.09   -53.657    72.75   -11.456   -29.73   
127000000  -12.372    97.248    26.422   -141.32   -52.899    43.338   -11.522   -30.033   
128000000  -12.31    96.291    26.413   -142.55   -55.16    28.185   -11.519   -30.293   
129000000  -12.334    95.957    26.427   -143.79   -50.862    57.954   -11.555   -30.648   
130000000  -12.343    95.323    26.436   -144.98   -52.907    55.749   -11.511   -31.211   
131000000  -12.338    95.024    26.433   -146.19   -54.192    56.218   -11.537   -31.956   
132000000  -12.32    94.274    26.446   -147.37   -51.753    59.669   -11.558   -32.053   
133000000  -12.386    93.422    26.431   -148.61   -55.286    49.301   -11.585   -32.572   
134000000  -12.34    92.586    26.449   -149.85   -50.478    37.748   -11.59   -32.86   
135000000  -12.364    91.899    26.452   -151.08   -53.776    38.907   -11.579   -33.305   
136000000  -12.346    91.394    26.454   -152.31   -51.712    32.211   -11.596   -33.57   
137000000  -12.34    91.055    26.457   -153.52   -53.204    49.922   -11.613   -34.152   
138000000  -12.366    89.986    26.463   -154.72   -51.35    23.494   -11.645   -34.195   
139000000  -12.346    89.296    26.464   -155.93   -50.212    37.554   -11.604   -35.093   
140000000  -12.369    88.792    26.467   -157.12   -53.552    22.408   -11.662   -35.456   
141000000  -12.333    88.544    26.474   -158.39   -53.482    19.33   -11.679   -35.747   
142000000  -12.353    87.713    26.49   -159.61   -53.509    33.447   -11.697   -36.216   
143000000  -12.323    87.034    26.489   -160.82   -52.796    48.209   -11.71   -36.329   
144000000  -12.372    86.12    26.492   -162.01   -52.561    28.889   -11.729   -36.954   
145000000  -12.338    85.56    26.504   -163.22   -51.442    25.648   -11.741   -37.224   
146000000  -12.41    85.277    26.516   -164.41   -52.761    27.789   -11.767   -37.583   
147000000  -12.367    84.316    26.517   -165.58   -50.517    39.657   -11.8   -38.062   
148000000  -12.408    84.227    26.516   -166.84   -54.435    .6907   -11.818   -38.562   
149000000  -12.307    83.294    26.536   -168.03   -51.356    24.813   -11.849   -39.036   
150000000  -12.331    82.429    26.526   -169.22   -54.416    39.516   -11.882   -39.118   
151000000  -12.361    81.839    26.544   -170.44   -49.085    9.6089   -11.861   -39.438   
152000000  -12.391    81.236    26.552   -171.65   -53.191    34.047   -11.951   -40.036   
153000000  -12.378    80.52    26.557   -172.85   -52.725    14.844   -11.969   -40.204   
154000000  -12.303    80.105    26.565   -174.1   -53.332    23.395   -11.966   -40.843   
155000000  -12.328    79.239    26.568   -175.35   -52.659    34.953   -12.028   -41.044   
156000000  -12.34    78.655    26.578   -176.48   -49.574    3.7491   -12.04   -41.365   
157000000  -12.315    78.14    26.595   -177.73   -51.409    35.75   -11.998   -41.984   
158000000  -12.369    77.566    26.597   -178.84   -52.073    3.1984   -12.044   -42.535   
159000000  -12.365    76.803    26.606    179.93   -53.169    21.978   -12.042   -42.792   
160000000  -12.287    76.223    26.62    178.65   -50.978    18.119   -12.18   -42.932   
161000000  -12.356    75.513    26.632    177.48   -50.432    14.01   -12.133   -43.745   
162000000  -12.292    74.795    26.643    176.3   -50.569   -2.1451   -12.157   -43.867   
163000000  -12.363    74.149    26.657    175.1   -51.922    10.822   -12.293   -44.267   
164000000  -12.368    73.593    26.669    173.86   -49.437    28.908   -12.256   -44.718   
165000000  -12.406    73.023    26.688    172.7   -49.669    4.2888   -12.27   -44.826   
166000000  -12.378    72.169    26.692    171.39   -53.459    12.861   -12.227   -45.081   
167000000  -12.381    71.722    26.699    170.23   -52.036    21.469   -12.336   -45.507   
168000000  -12.416    71.058    26.715    168.98   -54.085    15.226   -12.312   -46.027   
169000000  -12.435    70.558    26.731    167.71   -51.983    16.478   -12.394   -46.848   
170000000  -12.402    69.807    26.738    166.53   -52.346    12.622   -12.465   -46.783   
171000000  -12.396    68.921    26.742    165.28   -50.563    15.147   -12.494   -46.96   
172000000  -12.402    68.568    26.758    164.03   -51.47    17.049   -12.432   -47.862   
173000000  -12.404    67.808    26.773    162.78   -53.916    9.0074   -12.586   -47.984   
174000000  -12.399    67.21    26.782    161.58   -51.758    1.6397   -12.589   -47.953   
175000000  -12.43    66.698    26.796    160.34   -55.045    5.3105   -12.565   -48.355   
176000000  -12.416    66.009    26.814    159.02   -53.736    3.0624   -12.627   -48.746   
177000000  -12.442    65.38    26.821    157.88   -53.832   -9.2079   -12.65   -49.546   
178000000  -12.43    64.771    26.832    156.6   -54.395   -18.39   -12.706   -49.638   
179000000  -12.456    63.772    26.838    155.4   -51.579   -5.6332   -12.684   -49.705   
180000000  -12.404    63.343    26.847    154.1   -54.44   -25.889   -12.744   -50.431   
181000000  -12.454    62.544    26.855    152.87   -51.757   -1.7427   -12.823   -50.37   
182000000  -12.478    61.985    26.854    151.57   -55.827    10.433   -12.893   -50.655   
183000000  -12.467    61.544    26.877    150.37   -51.173   -34.659   -12.844   -51.303   
184000000  -12.428    60.789    26.884    149.16   -52.728   -17.435   -12.897   -51.875   
185000000  -12.41    60.802    26.889    147.89   -55.413   -23.265   -12.905   -51.843   
186000000  -12.472    59.268    26.898    146.63   -52.162   -23.739   -13.016   -52.461   
187000000  -12.453    59.034    26.913    145.25   -51.236   -20.789   -12.984   -52.567   
188000000  -12.422    58.436    26.92    144.04   -52.36   -13.726   -13.096   -52.799   
189000000  -12.521    57.746    26.935    142.9   -50.151   -16.268   -13.125   -52.949   
190000000  -12.521    57.292    26.943    141.59   -54.072   -11.394   -13.133   -53.226   
191000000  -12.446    56.64    26.95    140.27   -51.281   -14.034   -13.177   -53.759   
192000000  -12.491    55.817    26.958    138.97   -54.392   -33.262   -13.291   -53.764   
193000000  -12.482    55.19    26.969    137.71   -52.761   -6.8692   -13.235   -53.946   
194000000  -12.57    54.564    26.995    136.53   -51.218   -35.565   -13.341   -54.384   
195000000  -12.537    54.169    27    135.2   -52.426   -38.278   -13.436   -54.689   
196000000  -12.563    53.28    27.02    133.94   -54.505   -24.416   -13.371   -54.885   
197000000  -12.572    52.737    27.023    132.62   -50.552   -29.174   -13.483   -54.656   
198000000  -12.55    52.292    27.044    131.34   -53.487   -26.557   -13.502   -55.037   
199000000  -12.633    51.29    27.07    130.05   -51.593   -19.208   -13.462   -55.602   
200000000  -12.638    50.65    27.065    128.81   -51.975   -27.195   -13.593   -56.104   
201000000  -12.647    50.018    27.079    127.56   -54.358   -9.7929   -13.599   -56.429   
202000000  -12.651    49.445    27.087    126.3   -53.119   -58.921   -13.673   -56.291   
203000000  -12.615    48.632    27.097    125.03   -52.115   -41.016   -13.656   -56.159   
204000000  -12.639    48.281    27.108    123.72   -51.76   -30.58   -13.742   -56.944   
205000000  -12.678    47.626    27.125    122.48   -51.222   -17.218   -13.774   -57.269   
206000000  -12.709    46.769    27.135    121.2   -52.46   -29.476   -13.874   -56.864   
207000000  -12.679    46.177    27.135    119.92   -52.349   -44.469   -13.852   -57.353   
208000000  -12.728    45.515    27.141    118.6   -55.877   -17.704   -13.901   -57.806   
209000000  -12.705    45.027    27.156    117.35   -57.668   -29.106   -13.943   -57.98   
210000000  -12.741    44.415    27.17    116.1   -50.834   -46.184   -14.028   -58.346   
211000000  -12.759    43.573    27.186    114.88   -51.254   -33.479   -14.009   -58.081   
212000000  -12.788    43.146    27.205    113.57   -53.53   -57.21   -14.036   -58.318   
213000000  -12.857    42.171    27.219    112.24   -55.499   -43.915   -14.132   -58.429   
214000000  -12.829    41.922    27.228    110.99   -50.867   -74.231   -14.152   -58.528   
215000000  -12.833    41.237    27.239    109.64   -51.729   -47.082   -14.17   -59.2   
216000000  -12.869    40.486    27.258    108.4   -56.891   -35.092   -14.23   -59.187   
217000000  -12.831    39.7    27.256    106.96   -53.621   -28.805   -14.263   -59.435   
218000000  -12.905    39.412    27.272    105.77   -57.849   -73.979   -14.334   -59.803   
219000000  -12.897    38.544    27.293    104.54   -53.331   -23.398   -14.384   -60.478   
220000000  -12.969    37.95    27.302    103.15   -54.382   -74.511   -14.39   -60.102   
221000000  -13.023    37.218    27.306    101.84   -51.364   -45.312   -14.493   -60.278   
222000000  -13.072    36.638    27.329    100.58   -56.277   -72.106   -14.487   -60.684   
223000000  -13.052    35.403    27.338    99.272   -51.425   -59.746   -14.538   -60.028   
224000000  -13.049    34.795    27.351    97.916   -52.224   -43.731   -14.61   -60.253   
225000000  -13.031    34.357    27.36    96.545   -51.681   -61.103   -14.565   -60.478   
226000000  -13.202    33.783    27.371    95.286   -52.904   -61.114   -14.677   -60.848   
227000000  -13.18    33.252    27.385    93.965   -53.831   -51.246   -14.667   -60.819   
228000000  -13.156    32.344    27.399    92.59   -57.489   -94.48   -14.707   -61.212   
229000000  -13.255    31.763    27.414    91.261   -52.955   -59.974   -14.68   -61.157   
230000000  -13.25    31.143    27.42    89.931   -56.166   -60.749   -14.739   -61.377   
231000000  -13.325    30.363    27.43    88.537   -50.747   -60.513   -14.823   -61.205   
232000000  -13.347    29.658    27.439    87.27   -53.206   -54.993   -14.807   -61.761   
233000000  -13.324    28.603    27.45    85.92   -54.584   -75.432   -14.895   -62.121   
234000000  -13.36    27.659    27.445    84.597   -54.024   -81.465   -14.877   -62.261   
235000000  -13.41    27.368    27.474    83.231   -51.75   -88.768   -15.002   -62.015   
236000000  -13.451    26.87    27.48    81.889   -51.134   -75.992   -14.988   -62.508   
237000000  -13.533    25.911    27.484    80.517   -52.441   -59.999   -15.037   -62.266   
238000000  -13.606    25.315    27.505    79.176   -56.487   -51.781   -15.021   -61.913   
239000000  -13.616    24.483    27.505    77.819   -53.889   -69.961   -15.044   -62.349   
240000000  -13.659    23.551    27.521    76.47   -51.796   -87.98   -15.08   -62.989   
241000000  -13.742    22.814    27.531    75.115   -52.927   -59.69   -15.111   -62.97   
242000000  -13.84    22.365    27.533    73.705   -52.88   -80.701   -15.123   -62.352   
243000000  -13.852    21.745    27.551    72.431   -49.462   -97.997   -15.121   -62.459   
244000000  -14.005    20.332    27.562    71.013   -53.331   -86.48   -15.192   -63.03   
245000000  -14.038    19.733    27.571    69.641   -52.664   -84.006   -15.217   -63.082   
246000000  -14.137    19.19    27.576    68.266   -54.043   -83.668   -15.262   -63.39   
247000000  -14.145    18.395    27.598    66.863   -50.56   -76.24   -15.195   -63.585   
248000000  -14.326    17.994    27.602    65.576   -55.944   -70.572   -15.293   -63.435   
249000000  -14.385    16.62    27.614    64.211   -51.5   -106.89   -15.318   -63.612   
250000000  -14.522    16.951    27.63    62.758   -53.481   -86.788   -15.249   -64.133   
