! Network Analyzer HP8753D.06.12 Serial No. 3410A09394
! 
! 13 Jun 2019  08:23:46
# HZ  S  DB R 50
50000000  -13.745    30.819   -6.0205    32.677   -51.583   -20.557   -20.975    24.778   
51000000  -13.659    30.873   -4.3963    24.277   -50.726   -122.61   -22.434    73.247   
52000000  -13.399    28.286   -5.6252    34.608   -42.724    100.51   -19.548    19.77   
53000000  -13.302    31.091   -5.262    19.44   -56.217    23.198   -16.514    79.563   
54000000  -13.393    28.198   -5.1639    22.548   -39.429    45.163   -21.682    54.142   
55000000  -13.003    26.693   -4.6689    12.802   -45.339    36.481   -21.626    52.346   
56000000  -12.367    28.597   -4.8215    15.447   -42.893   -116.43   -17.642    38.278   
57000000  -12.623    26.738   -5.2713    25.367   -40.673    128.92   -19.454    59.481   
58000000  -12.385    26.408   -5.8208    13.233   -48.09    145.35   -22.794    27.761   
59000000  -12.093    25.657   -6.3102    11.656   -53.74   -161.98   -21.778   -12.736   
60000000  -11.952    25.966   -4.6747   -1.8622   -43.619    88.848   -22.449   -5.9683   
61000000  -11.723    22.674   -3.6766   -2.3222   -46.519    175.82   -22.62    37.021   
62000000  -11.667    22.543   -5.3038   -5.2885   -40.679   -23.983   -28.487   -107.74   
63000000  -11.716    19.83   -6.3516   -11.606   -43.519   -27.188   -19.362    19.262   
64000000  -11.607    19.81   -6.2771   -9.8534   -45.023   -77.147   -15.567    10.342   
65000000  -11.134    20.54   -5.1935   -10.15   -41.625   -10.169   -16.844    15.173   
66000000  -11.533    18.486   -5.6788   -6.5094   -47.064   -135.06   -22.242    94.809   
67000000  -11.482    18.769   -6.2641   -23.655   -41.339   -110.84   -22.85    53.742   
68000000  -10.865    14.534   -3.1509   -19.216   -40.717   -46.777   -13.065   -14.729   
69000000  -11.193    15.905   -5.7199   -24.114   -40.484   -69.001   -25.252   -27.39   
70000000  -11.348    15.348   -4.1813   -20.794   -60.478    141.91   -22.243    19.065   
71000000  -10.778    13.785   -5.0691   -27.499   -47.788    73.433   -15.794   -25.829   
72000000  -10.539    13.339   -5.9911   -30.028   -41.252    11.146   -17.907    12.2   
73000000  -10.968    12.671   -5.9337   -38.105   -38.79   -135.02   -12.184    19.991   
74000000  -10.529    11.647   -5.6945   -27.444   -42.561    166.73   -22.296   -29.59   
75000000  -10.051    11.742   -4.7201   -40.971   -46.605   -140.19   -12.572   -5.3421   
76000000  -10.012    9.9179   -5.3212   -49.65   -44.49    40.349   -24.028   -166.96   
77000000  -9.7694    6.92   -8.3118   -54.737   -40.359    91.031   -19.784   -6.0287   
78000000  -10.019    4.1872   -9.6279   -37.441   -39.807    171.23   -19.521   -18.806   
79000000  -10.035    6.9118   -7.4647   -29.148   -49.013   -169.13   -16.348    12.001   
80000000  -10.208    6.9653   -8.5409   -59.111   -41.431    17.928   -25.135    42.841   
81000000  -9.8702    4.9219   -12.27   -58.653   -44.26    117.02   -27.16   -94.02   
82000000  -9.5071    3.6914   -11.249   -51.264   -35.055   -72.616   -20.327    22.223   
83000000  -9.6577    1.0217   -12.363   -80.487   -48.446   -45.043   -19.018    32.698   
84000000  -9.7608    .5548   -12.918   -68.677   -38.116    10.132   -33.815   -61.666   
85000000  -9.3599    1.1151   -26.261   -69.732   -40.676    118.02   -19.674   -15.728   
86000000  -9.8187   -3.1709   -13.609   -49.996   -50.628   -95.578   -18.453   -66.613   
87000000  -9.6573   -3.6749   -17.247    .3625   -47.003    79.693   -28.872    161.87   
88000000  -9.8236   -4.9123   -17.492   -119.9   -47.451   -140.47   -16.916   -78.826   
89000000  -9.4639   -5.3723   -19.237    50.573   -43.172   -168.87   -14.32   -40.818   
90000000  -9.7537   -5.6195   -14.57    91.09   -47.704    94.601   -14.348   -52.548   
91000000  -9.9018   -7.0862   -15.372    116.54   -43.877   -159.95   -24.488    53.286   
92000000  -9.8261   -7.7577   -12.029    83.19   -40.906   -101.6   -25.628   -134.41   
93000000  -9.3891   -10.357   -8.3583    82.054   -43.022   -68.011   -19.685   -13.122   
94000000  -9.5384   -10.155   -7.5584    65.573   -49.844   -16.609   -21.04   -52.108   
95000000  -9.5509   -12.509   -7.2097    77.892   -42.633   -48.945   -17.761    43.528   
96000000  -9.6674   -14.854   -6.7143    76.333   -50.007    9.5897   -33.119   -114.31   
97000000  -9.992   -13.668   -5.2743    65.529   -47.556    102.59   -21.02    21.386   
98000000  -9.4207   -15.9   -3.396    56.275   -43.507    111.14   -21.536    22.702   
99000000  -9.8869   -19.381   -2.5026    59.878   -45.519    122.01   -18.715   -51.236   
100000000  -9.567   -18.483   -1.5058    52.807   -51.072    54.009   -23.661   -31.939   
101000000  -9.511   -19.319   -.7165    51.227   -52.279   -124.98   -26.875   -30.6   
102000000  -9.8102   -22.114   -.9890    46.23   -60.714    34.991   -22.956   -20.735   
103000000  -9.5149   -23.229   -1.01    46.262   -42.152    82.538   -20.766    37.381   
104000000  -10.108   -26.212   -.3974    46.734   -42.532   -50.555   -16.478   -11.835   
105000000  -9.7815   -25.742   -1.761    41.118   -37.837    105.88   -27.354    90.301   
106000000  -9.9719   -27.816   -1.6655    34.979   -48.568   -82.315   -24.667   -72.448   
107000000  -10.245   -28.996   -1.6257    32.471   -53.365   -43.087   -20.099   -91.428   
108000000  -10.423   -29.049   -3.5668    29.883   -49.035   -48.326   -19.494   -92.859   
109000000  -10.187   -32.587   -5.5846    32.632   -51.461    153.59   -21.347   -120.68   
110000000  -10.454   -36.163   -7.6127    25.1   -46.522    137.61   -19.749   -66.19   
111000000  -10.989   -33.159   -17.686    47.744   -41.505    2.5708   -18.535   -2.1135   
112000000  -11.419   -37.755   -11.825    156.84   -42.918   -24.119   -14.058   -48.981   
113000000  -11.201   -36.383   -7.837    174.38   -38.881   -156.48   -29.636   -34.478   
114000000  -11.457   -37.547   -3.6397   -178.9   -39.257   -29.611   -17.41   -34.998   
115000000  -11.803   -41.821   -5.7828   -167.44   -44.972    142.07   -16.691   -52.224   
116000000  -12.283   -44.195   -1.9448   -104.49   -60.602    72.714   -17.431   -69.005   
117000000  -12.543   -44.58    7.8243   -73.312   -36.358    85.527   -23.742   -68.949   
118000000  -13.323   -46.788    15.97   -73.102   -42.463    55.73   -24.642   -80.181   
119000000  -13.078   -45.294    22.949   -76.56   -47.45   -6.0658   -16.438   -85.078   
120000000  -13.932   -48.072    29.445   -85.99   -53   -69.748   -16.954   -58.694   
121000000  -15.595   -49.561    35.557   -98.951   -43.957    74.618   -27.816    19.447   
122000000  -16.233   -56.931    41.425   -114.47   -41.255    116.28   -21.669   -40.253   
123000000  -15.25   -30.549    47.264   -136.34   -44.873   -75.564   -21.027   -46.748   
124000000  -16.29   -25.289    52.339   -166.45   -53.653   -97.056   -26.59    160.9   
125000000  -15.041   -11.607    55.218    154.45   -57.05    40.862   -29.802    60.05   
126000000  -8.5744   -35.137    56.172    114.82   -42.354    12.707   -13.413   -58.16   
127000000  -13.803    7.8181    56.358    80.899   -39.133    139.96   -13.386   -1.3637   
128000000  -12.203   -6.3089    56.611    53.895   -45.115    157.5   -15.064   -4.4275   
129000000  -21.899   -37.717    56.772    31.584   -46.205   -20.837   -17.224   -138.3   
130000000  -15.053   -55.055    56.797    9.8232   -42.906    63.423   -18.111   -70.174   
131000000  -10.953   -30.418    56.852   -10.116   -45.134    141.37   -16.579   -167.27   
132000000  -16.796   -61.876    56.909   -28.102   -42.063    59.814   -17.791   -148.61   
133000000  -14.548   -45.026    56.933   -45.916   -51.906    127.16   -29.643   -171.61   
134000000  -17.109   -80.515    57.074   -61.396   -42.483    141.18   -15.647   -91.686   
135000000  -8.2593   -32.977    57.008   -76.502   -41.406   -103.63   -26.399   -38.206   
136000000  -15.452   -10.069    57.035   -91.957   -55.995    49.066   -26.366    100.81   
137000000  -17.057    1.6946    57.064   -106.14   -46.817    80.498   -25.973    118.99   
138000000  -24.512   -2.4033    57.131   -119.59   -47.218    137.44   -18.838   -154.22   
139000000  -13.022   -38.173    57.1   -131.88   -40.277   -88.889   -12.74   -98.494   
140000000  -14.544    7.9417    57.079   -144.83   -41.159    127.14   -11.114    97.504   
141000000  -13.975   -52.329    57.108   -157.2   -46.15   -60.304   -15.282   -31.006   
142000000  -11.829   -10.764    57.104   -168.91   -46.057    96.375   -25.715    73.531   
143000000  -13.899   -17.168    57.197    179.29   -53.1    82.075   -20.252   -25.556   
144000000  -7.3275   -6.7415    57.165    168.1   -39.028    125.5   -17.185   -21.432   
145000000  -22.46    11.135    57.127    156.94   -46.527   -73.88   -21.591   -138.36   
146000000  -15.893    10.072    57.13    145.83   -46.197   -92.035   -37.931    66.923   
147000000  -19.372    35.508    57.172    135.16   -43.451   -70.156   -23.509    102.18   
148000000  -17.264    25.797    57.165    123.89   -44.431   -50.146   -18.179   -133.53   
149000000  -11.627   -40.412    57.213    113.29   -42.285    169.13   -14.145   -40.296   
150000000  -18.729   -20.822    57.143    103.14   -45.775    35.874   -16.445   -144.45   
151000000  -14.186   -4.1377    57.206    93.076   -52.945   -73.976   -27.607   -27.605   
152000000  -14.795    4.3286    57.303    81.698   -50.51    25.734   -23.236   -86.086   
153000000  -14.875   -14.605    57.335    71.62   -54.764   -137.01   -23.577   -61.676   
154000000  -12.194    16.537    57.307    61.374   -42.768    23.258   -21.671   -174.32   
155000000  -25.23    167.69    57.233    50.701   -38.908    120.06   -10.461   -157.04   
156000000  -13.707   -19.475    57.352    40.393   -56.617   -28.052   -24.442   -62.47   
157000000  -14.773    4.3245    57.403    29.888   -45.987    61.017   -24.962    92.828   
158000000  -12.696    50.555    57.364    20.242   -40.338    116.54   -12.006    164.97   
159000000  -15.944   -22.339    57.422    9.0472   -60.726   -97.934   -24.242   -170.18   
160000000  -13.642   -33.102    57.286   -1.4626   -49.799   -15.846   -12.818   -79.692   
161000000  -11.89   -14.683    57.369   -12.111   -46.604    76.153   -22.322    25.076   
162000000  -12.99    1.3513    57.431   -22.497   -44.499    108.19   -31.597   -28.449   
163000000  -19.645   -51.163    57.311   -32.981   -47.68   -62.162   -18.787   -118.26   
164000000  -16.315   -4.5978    57.254   -43.138   -53.672    159.04   -23.296    103.71   
165000000  -11.632   -18.173    57.263   -53.851   -41.543    130.7   -19.46   -5.5811   
166000000  -14.707    12.441    57.294   -64.984   -43.079   -130.71   -20.427    115.37   
167000000  -13.36   -53.344    57.197   -75.721   -45.446    90.023   -17.581   -103.28   
168000000  -22.981   -45.503    57.114   -86.418   -49.56    49.937   -23.443   -61.44   
169000000  -18.294   -23.544    57.187   -97.174   -51.796    87.237   -18.447   -136.7   
170000000  -10.253   -61.076    57.181   -108.09   -39.491    128.52   -17.421   -134.13   
171000000  -11.271   -37.332    57.077   -119.12   -44.175   -164.06   -15.349   -37.727   
172000000  -14.417   -24.416    57.039   -130.98   -51.383   -160.1   -20.581   -70.845   
173000000  -16.478    32.568    57.013   -142.09   -47.194    24.236   -15.912   -177.11   
174000000  -14.715   -91.292    56.972   -154.18   -39.259    152.46   -12.815   -126.08   
175000000  -14.432   -6.7964    56.903   -166.17   -50.228   -98.355   -44.484   -146.87   
176000000  -10.635    12.849    56.9   -179.49   -40.588   -5.4863   -11.626    39.765   
177000000  -14.952    29.743    56.976    168.79   -48.752    74.228   -18.398    142.07   
178000000  -16.372   -11.106    56.839    155.56   -56.029   -109.16   -20.989   -134.49   
179000000  -10.537   -12.096    56.87    141.54   -45.464   -5.441   -34.149   -178.9   
180000000  -14.613   -60.654    56.849    127.54   -40.686   -63.342   -15.75   -115.59   
181000000  -7.888   -8.6147    56.759    112.42   -42.079    53.14   -14.886   -11.944   
182000000  -8.6847   -38.404    56.796    97.042   -36.458    44.539   -12.066   -59.197   
183000000  -10.557    54.367    56.757    78.312   -39.719   -118.2   -16.772    144.36   
184000000  -12.053    17.338    56.655    60.327   -42.138   -169.32   -17.32    97.078   
185000000  -9.9288   -2.3772    56.516    40.871   -37.929    123.52   -24.183   -40.696   
186000000  -12.522    9.381    56.243    20.235   -47.131   -161.37   -22.537   -7.446   
187000000  -13.666    6.931    56.009   -1.9954   -47.671   -98.085   -18.446    108.01   
188000000  -17.529   -10.318    55.645   -25.925   -44.012    162.14   -20.434   -34.836   
189000000  -22.431    68.1    55.31   -55.613   -42.649    126.42   -15.468   -140.32   
190000000  -19.089   -53.201    54.437   -90.887   -37.332   -153.44   -9.3231   -126.98   
191000000  -15.892    33.832    51.545   -127.57   -42.662    170.13   -19.532   -106.03   
192000000  -10.696    3.2986    46.958   -156.51   -39.553    30.204   -27.699   -84.051   
193000000  -13.683    18.787    41.823   -177.11   -40.052   -122.36   -21.488   -143.16   
194000000  -11.788    9.9811    36.609    167.92   -42.912    80.3   -21.479   -176.91   
195000000  -11.779    10.44    31.367    157.16   -44.372    161.86   -21.423    156.67   
196000000  -11.992    9.5966    26.155    148.35   -44.713    140.65   -36.303    128.69   
197000000  -11.775    7.8525    20.781    143.89   -56.924   -165.88   -17.974    177.7   
198000000  -11.774    3.175    14.844    139.44   -43.705   -171.92   -17.514   -133.9   
199000000  -11.427    4.6733    8.5171    141.67   -60.858    117.41   -21.761   -159.15   
200000000  -11.519    .7772    1.9452    151.74   -49.872    97.255   -27.233   -174.04   
201000000  -11.877    .0521   -6.8656   -163.5   -52.849   -10.971   -16.959   -148.13   
202000000  -11.03    .2485   -8.4443   -127.28   -39.145    130.31   -27.032    17.504   
203000000  -11.672   -1.4735   -8.7902   -121.14   -44.634    64.107   -27.265   -176.95   
204000000  -11.542   -7.9898   -9.8295   -92.163   -47.741    91.978   -33.534   -144.78   
205000000  -12.166   -5.1649   -16.449   -63.456   -42.366    79.699   -25.838   -161.18   
206000000  -11.875   -8.5075   -14.242   -13.306   -40.825    33.482   -33.619   -50.897   
207000000  -11.649   -6.8211   -10.216   -6.6577   -44.925    3.4264   -23.747   -135.22   
208000000  -12.122   -4.6294   -9.55    10.223   -39.894   -82.226   -15.536   -120.49   
209000000  -12.054   -11.549   -7.6586    18.725   -46.705   -16.673   -18.635   -96.535   
210000000  -12.194   -8.5529   -4.2289    26.492   -44.604    113.26   -28.583   -163.84   
211000000  -12.33   -9.4743   -4.836    20.619   -49.765    15.649   -17.941    104.17   
212000000  -11.975   -14.116   -3.3291    24.489   -40.406   -45.976   -31.262   -141.54   
213000000  -12.294   -7.7399   -1.4587    19.233   -35.759    168.85   -16.29   -160.18   
214000000  -12.147   -12.813   -2.1015    12.618   -43.272    149.01   -19.28   -101.45   
215000000  -12.886   -13.594   -2.6992    21.651   -40.019   -77.238   -24.354   -83.231   
216000000  -12.652   -11.372   -1.9297    12.257   -43.764    102.03   -24.238   -144.72   
217000000  -12.97   -10.938   -2.7482   -1.5999   -47.002    35.327   -24.688   -152.16   
218000000  -12.797   -11.29   -3.1914    12.066   -43.449   -130.77   -23.594   -178.25   
219000000  -13.399   -13.218   -2.3937   -.5877   -46.786    140.5   -19.711   -122.15   
220000000  -13.351   -10.459   -1.804   -.9585   -45.683   -104.24   -17.657    148.99   
221000000  -13.506   -7.7165   -3.3501    2.5763   -40.332   -143.99   -22.788   -138.84   
222000000  -13.308   -10.775   -3.4875   -3.7477   -62.674    175.71   -27.325   -59.562   
223000000  -13.49   -11.939   -4.4171   -1.4186   -40.454   -59.638   -25.613   -112.3   
224000000  -13.646   -10.12   -2.7066   -23.222   -45.492    111.24   -19.174   -138.61   
225000000  -13.768   -12.214   -4.8928   -4.8793   -44.18   -38.085   -36.423    130.26   
226000000  -14.397   -3.2863   -3.9985   -17.17   -44.722    85.983   -17.443    160.08   
227000000  -13.816   -7.3938   -4.2362   -25.865   -37.554    175.87   -19.134   -114.23   
228000000  -13.756   -3.1435   -4.6893   -21.286   -37.281    6.3776   -22.555   -110.43   
229000000  -14.011   -.9462   -4.8201   -33.169   -43.473    125.1   -19.505   -122.41   
230000000  -13.791   -3.2506   -7.1105   -17.482   -48.325   -27.668   -17.389    140.61   
231000000  -13.643   -2.6862   -9.1279   -54.764   -44.002    157.82   -20.553    90.478   
232000000  -14.335   -2.0393   -10.298   -15.009   -47.567   -55.752   -30.339   -142.46   
233000000  -14.351    .0370   -9.8154   -22.618   -46.671   -75.565   -19.12    134.79   
234000000  -14.079   -1.7262   -7.8667   -25.013   -42.441    103.48   -22.591    146.68   
235000000  -13.418    3.2039   -7.4338   -39.039   -40.337   -4.3904   -18.29   -64.744   
236000000  -13.903    6.3666   -10.78   -49.411   -56.288    11.22   -25.372   -161.32   
237000000  -14.033    4.6266   -18.488   -34.868   -47.019    95.839   -28.358    17.448   
238000000  -13.379    4.8367   -10.391   -55.616   -48.646   -42.93   -20.139    141.89   
239000000  -13.218    4.9658   -18.175   -70.448   -36.422    25.161   -17.53    126.63   
240000000  -12.898    9.0143   -15.213   -26.119   -46.869   -85.964   -17.632    136.64   
241000000  -13.179    5.2487   -25.075   -57.788   -44.014   -122.25   -19.261    113.43   
242000000  -13.25    5.7953   -15.838   -54.171   -40.28   -143.22   -33.574   -102.86   
243000000  -12.575    7.3306   -14.972   -15.204   -39.413   -57.314   -26.552    165.8   
244000000  -12.781    10.02   -19.706   -79.31   -39.923   -62.415   -28.057    25.539   
245000000  -12.138    11.618   -21.817   -67.331   -59.029    55.526   -19.67    132.35   
246000000  -12.03    9.7833   -18.295   -43.61   -39.66    173.83   -22.445    131.15   
247000000  -12.271    13.688   -17.913   -33.284   -52.454   -3.138   -25.483   -129.16   
248000000  -11.355    10.822   -20.67    57.638   -48.225    177.11   -25.093    40.919   
249000000  -11.623    14.167   -23.217    13.863   -49.705    96.067   -32.06    31.917   
250000000  -10.991    12.875   -28.673    45.445   -37.27   -34.25   -29.257    115.08   
