! Network Analyzer HP8753D.06.12 Serial No. 3410A09394
! 
! 13 Jun 2019  09:07:39
# HZ  S  DB R 50
50000000  -14.446    29.119   -6.2782    30.602   -41.834   -158.23   -20.358    55.227   
51000000  -14.549    32.237   -6.6026    41.232   -61.391    158.34   -20.57   -27.89   
52000000  -13.735    31.127   -6.3583    29.226   -53.741    86.114   -15.134    35.67   
53000000  -13.532    31.779   -5.2566    19.55   -46.011    44.447   -14.731    55.21   
54000000  -13.491    27.396   -7.3393    8.2961   -47.71   -129.12   -18.695    62.52   
55000000  -13.116    29.306   -6.546    8.7231   -45.468    172.58   -20.604    41.266   
56000000  -13.356    27.066   -6.9059    21.445   -40.478   -62.387   -19.868    1.192   
57000000  -13.078    26.561   -5.5208    13.793   -49.05    155.08   -17.844    17.923   
58000000  -12.698    26.922   -3.9986    12.909   -40.698    52.901   -19.178    15.473   
59000000  -12.239    22.744   -6.1451    1.9006   -41.142    8.936   -22.221    7.8539   
60000000  -12.261    24.402   -4.9154    3.815   -44.155   -20.273   -19.704    72.528   
61000000  -12.038    20.767   -8.3833   -6.8871   -45.832   -22.836   -18.51    24.634   
62000000  -11.925    23.117   -6.6101   -6.0576   -43.521    104.76   -14.744    25.347   
63000000  -11.852    22.067   -9.8873    5.8914   -41.373    54.028   -17.048    8.4128   
64000000  -11.711    20.495   -6.0573   -11.821   -58.515   -158.72   -22.274   -12.758   
65000000  -11.559    22.191   -6.9006   -8.0791   -44.597   -93.057   -16.771    21.04   
66000000  -11.949    18.513   -6.0672   -24.428   -47.77    172.55   -19    16.749   
67000000  -11.91    18.737   -6.3091   -18.651   -44.448   -56.547   -15.66   -13.729   
68000000  -11.197    14.333   -6.3581   -31.72   -44.897    74.564   -18.171    98.083   
69000000  -11.339    16.563   -5.7748   -23.589   -42.927    161   -15.497    23.195   
70000000  -11.201    14.415   -5.3996   -22.276   -44.169    170.04   -27.8   -49.408   
71000000  -10.957    16.788   -6.1801   -28.109   -42.401    169.59   -25.052    45.645   
72000000  -10.61    14.273   -6.0625   -14.505   -41.933   -139.59   -13.851   -21.41   
73000000  -10.847    15.36   -7.5734   -21.896   -42.805   -167.65   -13.267   -.0590   
74000000  -11.032    12.199   -7.3337   -45.61   -36.845    120.72   -17.915   -54.575   
75000000  -10.428    11.823   -8.914   -36.865   -51.062    144.57   -20.774   -50.827   
76000000  -10.453    9.2079   -6.6367   -36.675   -40.564   -76.593   -19.537    38.305   
77000000  -10.175    9.6638   -9.9587   -72   -44.014    9.1351   -28.307    21.172   
78000000  -10.234    7.5421   -7.4972   -43.443   -51.919   -87.146   -29.537   -10.736   
79000000  -10.592    6.9598   -8.0996   -49.513   -37.551   -105.28   -21.537    37.969   
80000000  -10.289    6.0727   -10.901   -42.628   -47.688    117.52   -25.94    7.3251   
81000000  -10.347    3.4291   -11.666   -50.511   -49.408    51.779   -20.615    38.079   
82000000  -9.957    3.1339   -13.929   -43.12   -42.663    131.65   -25.16   -7.4556   
83000000  -10.116    1.832   -10.216   -55.464   -35.212   -77.195   -19.88   -13.075   
84000000  -10.101    1.6837   -12.885   -44.986   -45.373    154.93   -20.141    15.798   
85000000  -9.6711   -.8075   -18.693   -35.98   -45.271    124.69   -23.594   -53.278   
86000000  -9.8251   -.5149   -16.243   -50.85   -44.856   -56.22   -14.72   -95.582   
87000000  -10.006   -2.4884   -24.587   -96.459   -41.486   -161.64   -27.154    176.45   
88000000  -10.109   -2.7054   -23.029   -35.033   -37.282    62.531   -24.294   -17.261   
89000000  -10.026   -5.5399   -18.413   -72.695   -51.019   -141.68   -25.332   -.5918   
90000000  -10.05   -5.6841   -14.705    73.472   -41.715   -150.31   -34.557   -144.12   
91000000  -10.019   -6.4902   -16.949    57.011   -45.888   -117.15   -22.404    83.977   
92000000  -10.073   -9.2148   -14.683    107.41   -45.368   -145.98   -16.71    11.806   
93000000  -9.9333   -9.7421   -11.735    71.609   -41.207   -90.336   -18.441   -44.059   
94000000  -10.087   -8.9154   -8.0713    83.804   -41.331   -20.551   -14.593   -37.027   
95000000  -9.9494   -13.493   -9.2379    52.3   -39.517    41.982   -21.947   -7.2496   
96000000  -10.28   -16.046   -6.7088    63.478   -44.744    90.809   -15.738    29.548   
97000000  -10.159   -14.137   -7.3676    74.226   -52.058   -60.017   -25.532   -26.787   
98000000  -9.6866   -14.892   -5.2563    63.375   -46.916   -124.4   -18.333   -39.97   
99000000  -10.066   -17.276   -4.0567    56.791   -48.779    139.86   -16.685   -87.289   
100000000  -10.114   -17.65   -2.5117    59.279   -41.292   -1.7564   -31.955   -100.28   
101000000  -9.805   -18.428   -2.8273    52.957   -48.801   -67.375   -23.161   -68.115   
102000000  -10.128   -24.502   -1.4756    48.301   -43.29   -178.65   -25.85   -36.656   
103000000  -10.049   -21.248   -1.8706    46.815   -40.83    164.26   -20.69   -42.164   
104000000  -10.182   -24.473   -2.7018    44.547   -41.918   -112.11   -15.572   -69.668   
105000000  -10.322   -27.136   -2.1216    44.68   -39.164    70.832   -24.429   -60.506   
106000000  -10.604   -26.617   -1.9784    37.713   -47.551    127.1   -19.986   -54.581   
107000000  -10.301   -29.36   -2.7297    30.499   -39.734    157.11   -15.674   -37.936   
108000000  -10.633   -28.928   -3.4278    31.186   -47.198    11.803   -20.786   -78.589   
109000000  -11.063   -32.07   -7.9248    29.393   -38.845   -178.26   -23.244   -17.787   
110000000  -11.175   -36.767   -8.9253    26.922   -48.68    173.41   -19.653   -64.181   
111000000  -11.494   -33.816   -14.496    79.22   -52.753    13.482   -16.433   -60.296   
112000000  -11.867   -36.41   -14.006    140.22   -51.728    126.61   -16.358   -42.486   
113000000  -11.659   -38.568   -8.5026    166.08   -42.494   -168.56   -17.329   -76.443   
114000000  -11.642   -37.278   -5.4073    169.6   -49.571   -97.136   -16.596   -79.996   
115000000  -12.34   -40.552   -6.0941   -173.21   -40.898    61.011   -15.934   -82.914   
116000000  -12.952   -41.848   -2.4171   -97.662   -46.257    100.53   -25.083    21.845   
117000000  -13.272   -42.032    7.4365   -73.346   -40.258   -73.455   -21.397   -88.537   
118000000  -13.33   -47.35    15.589   -75.282   -38.102   -141.27   -23.154   -14.053   
119000000  -13.434   -42.005    22.441   -77.948   -41.396    173.78   -18.048   -56.691   
120000000  -14.339   -47.987    28.878   -87.358   -54.753   -144.95   -16.834   -60.373   
121000000  -14.997   -42.061    34.968   -100.45   -41.219   -121.87   -24.742   -10.894   
122000000  -15.51   -46.272    40.854   -115.96   -63.255   -145.91   -16.121   -94.198   
123000000  -16.532   -20.685    46.691   -138.31   -40.837   -36.017   -48.779    108.01   
124000000  -21.715   -10.123    51.77   -168.67   -49.398    70.762   -24.936   -144.74   
125000000  -10.413   -34.128    54.747    152.11   -40.036   -32.969   -17.221   -6.1249   
126000000  -10.935   -49.669    55.806    113.05   -43.85   -17.608   -12.195   -78.15   
127000000  -14.424    4.3451    56.013    79.439   -40.652    130.19   -23.825    6.1633   
128000000  -10.785   -21.616    56.284    52.572   -42.208    104.95   -19.696   -21.109   
129000000  -17.909   -1.3335    56.418    30.302   -48.018   -71.929   -23.496   -137.68   
130000000  -18.855   -48.156    56.507    8.6737   -44.858    25.611   -11.381   -131.03   
131000000  -10.596   -5.7417    56.45   -10.957   -43.028   -160.74   -10.891   -52.921   
132000000  -19.148   -33.433    56.592   -29.107   -46.504    35.462   -12.861   -125.85   
133000000  -7.1013   -16.637    56.565   -46.408   -40.443   -122.5   -11.573   -39.96   
134000000  -11.264   -68.964    56.761   -62.308   -39.382   -167.1   -13.183   -74.799   
135000000  -11.247   -36.708    56.715   -77.375   -46.528   -124.97   -19.108   -87.398   
136000000  -10.418   -41.793    56.72   -92.427   -42.655   -114.54   -13.922   -38.695   
137000000  -12.078   -17.382    56.749   -106.76   -42.697   -34.367   -15.853   -19.752   
138000000  -15.332   -6.9955    56.808   -120.27   -56.906    40.924   -25.045   -102.17   
139000000  -14.868   -11.564    56.776   -132.71   -46.315   -6.8266   -16.576   -40.721   
140000000  -12.926   -35.383    56.821   -145.48   -39.773   -12.338   -15.268   -31.512   
141000000  -14.752   -38.646    56.805   -158.14   -49.239   -57.078   -22.244   -58.222   
142000000  -16.104    12.253    56.805   -169.7   -48.853    175.14   -33.536    61.657   
143000000  -18.394   -32.827    56.906    178.4   -51.425   -46.766   -20.56   -100.55   
144000000  -19.923   -42.263    56.85    167.13   -48.284   -24.59   -26.418   -92.78   
145000000  -11.535    4.7351    56.829    156.43   -44.205    161.86   -23.512    15.677   
146000000  -16.65   -2.2893    56.842    145   -56.489   -65.82   -19.87   -72.107   
147000000  -15.768    2.4115    56.911    134.23   -54.999   -97.622   -18.865   -120.1   
148000000  -18.166    61.946    56.859    123.17   -39.979   -36.432   -20.757   -171.96   
149000000  -30.367   -36.55    56.878    112.32   -41.736    66.562   -12.39   -96.669   
150000000  -16.27   -1.468    56.863    102.34   -54.894   -16.999   -20.378   -106.93   
151000000  -18.593   -1.1343    56.894    92.177   -47.094    32.752   -21.06   -169.67   
152000000  -15.963   -16.668    57.009    80.877   -51.256    175.5   -35.792   -75.333   
153000000  -13.869   -10.654    57.042    70.757   -52.105   -70.959   -25.537   -97.876   
154000000  -11.085   -14.442    57.026    60.403   -44.529   -59.3   -36.58   -89.795   
155000000  -14.938   -62.987    56.992    49.583   -43.203   -170.1   -13.84   -102.63   
156000000  -11.304    .3474    57.083    39.643   -41.063    7.7371   -14.401    56.288   
157000000  -25.926   -58.686    57.086    28.948   -40.854    157.66   -17.048    172.43   
158000000  -9.6333   -13.222    57.132    18.708   -43.486    8.2027   -16.548   -12.875   
159000000  -8.3794   -15.189    57.161    8.0406   -37.165    52.535   -16.29    78.209   
160000000  -11.051   -22.915    57.032   -2.3387   -43.47    13.134   -15.52   -26.256   
161000000  -21.626   -64.924    57.025   -12.975   -44.579   -78.492   -17.72   -110.15   
162000000  -20.773   -41.586    57.119   -23.435   -47.331   -97.526   -24.19   -129.65   
163000000  -12.036    19.72    57.063   -34.099   -42.416    147.45   -17.736    18.292   
164000000  -16.117   -1.7015    56.942   -44.151   -51.106    157.76   -32.931    165.34   
165000000  -15.995    18.136    56.979   -54.669   -44.613   -122.42   -20.542    127.18   
166000000  -20.021   -1.7935    56.963   -65.88   -51.757   -40.655   -18.97   -121.97   
167000000  -10.064   -15.061    56.889   -76.881   -43.3    159.74   -19.07   -77.907   
168000000  -13.26    43.691    56.84   -87.142   -44.353   -65.212   -16.43   -161.39   
169000000  -17.798   -23.273    56.874   -98.232   -48.87    124.69   -24.312   -166.77   
170000000  -22.026   -106.28    56.887   -109.12   -42.421    64.237   -18.303   -176.84   
171000000  -13.787    68.851    56.866   -119.83   -43.092    9.0472   -13.666   -178.78   
172000000  -28.612    86.821    56.718   -131.86   -45.576    82.44   -18.611   -99.981   
173000000  -21.998   -.7731    56.647   -143.17   -49.96    123.39   -22.755   -101.47   
174000000  -12.198   -26.182    56.615   -155.54   -43.309   -135.48   -15.949   -62.313   
175000000  -17.128   -15.05    56.538   -167.2   -50.135   -179.51   -17.622   -63.625   
176000000  -23.454   -30.134    56.595   -179.95   -43.268    179.11   -12.934   -143.39   
177000000  -11.986   -28.562    56.582    168.14   -43.452   -92.309   -13.641   -104.7   
178000000  -17.927    49.131    56.501    154.39   -47.052    155.77   -24.594   -169.02   
179000000  -12.929    95.371    56.629    140.68   -38.571    156.65   -9.1814   -177.75   
180000000  -16.215   -83.837    56.546    126.6   -38.196   -80.362   -9.3077   -132.58   
181000000  -11.903    32.61    56.506    111.1   -46.452    142.37   -22.392    170.11   
182000000  -17.532    34.431    56.48    95.332   -47.111   -115.8   -20.253   -177.62   
183000000  -13.067    1.6685    56.408    77.327   -51.881    163.69   -27.021   -73.394   
184000000  -20.232   -15.125    56.32    59.126   -45.154    1.7207   -15.297   -125.69   
185000000  -13.104    6.644    56.132    39.343   -45.551    127.45   -37.47    43.792   
186000000  -14.2   -14.803    55.828    18.803   -45.809    113.03   -19.5   -40.584   
187000000  -15.72    14.477    55.586   -3.5472   -60.009    88.145   -25.809   -112.44   
188000000  -18.552    9.5334    55.183   -27.736   -44.273    117.93   -13.488   -108.66   
189000000  -16.117    33.419    54.726   -57.42   -49.539    88.183   -27.571   -173.34   
190000000  -11.246    37.143    53.602   -92.898   -40.212    41.291   -17.164    112.95   
191000000  -13.816    25.175    50.491   -128.78   -47.028    107.07   -25.582    174.29   
192000000  -13.365    37.267    45.844   -157.09   -40.471    175.71   -16.823   -140.31   
193000000  -13.684    12.585    40.711   -177.01   -40.714   -65.586   -18.467   -150.68   
194000000  -11.562    14.996    35.484    168.31   -43.302    127.7   -30.374    162.73   
195000000  -12.153    15.002    30.304    157.88   -43.031   -24.993   -24.223   -38.548   
196000000  -11.789    9.4441    25.119    149.3   -38.791    4.1254   -15.354    152.72   
197000000  -11.818    10.04    19.745    144.37   -42.153   -150.8   -21.137   -114.27   
198000000  -11.347    2.6546    14.055    140.12   -45.778    33.466   -17.473   -125.47   
199000000  -11.273    5.0674    7.715    140.42   -42.763    55.201   -20.452    158.22   
200000000  -11.624    4.7379    .2988    147.85   -46.555   -34.43   -16.331   -169.02   
201000000  -11.489    1.9679   -5.7297   -167.4   -47.431    45.004   -21.461    133.81   
202000000  -10.904   -1.8127   -9.3025   -126.57   -47.214   -126.43   -19.975    117.59   
203000000  -11.543   -1.5518   -9.6442   -102.88   -43.069    46.041   -23.147   -34.346   
204000000  -11.669   -3.002   -8.4496   -90.791   -46.218   -52.587   -26.249   -143.99   
205000000  -12.216   -3.9551   -13.619   -76.593   -43.55   -129.74   -17.767   -140.19   
206000000  -11.997   -4.8615   -19.981   -57.652   -44.659   -26.645   -25.472   -100.74   
207000000  -11.641   -6.015   -13.484   -22.88   -46.205    146.19   -20.268   -131.37   
208000000  -12.432   -4.6239   -7.9466    17.91   -60.755    52.934   -24.893   -99.572   
209000000  -12.008   -6.7676   -5.0733    22.289   -43.648    3.0611   -21.262   -119.02   
210000000  -11.568   -7.8319   -5.3471    32.783   -45.339    169.11   -16.679   -158.96   
211000000  -12.143   -7.0889   -4.7435    16.746   -47.285   -160.5   -21.93   -105.8   
212000000  -11.829   -10.529   -2.774    17.538   -42.852   -100.09   -17.403   -133.2   
213000000  -12.271   -7.825   -1.6599    18.145   -47.96    75.013   -21.382    177.02   
214000000  -11.962   -10.495   -3.8403    18.064   -45.728    96.254   -23.851   -128.41   
215000000  -12.86   -12.648   -2.9043    19.877   -38.653    17.526   -16.521    95.541   
216000000  -12.564   -7.5476   -3.2854    17.382   -42.499   -164.96   -19.432   -173.82   
217000000  -13.022   -8.7369   -1.8731    13.245   -49.434    29.262   -25.883    5.3778   
218000000  -12.827   -10.749   -2.7975    10.708   -40.899   -12.637   -31.714   -149.82   
219000000  -13.163   -9.7833   -2.55    4.6321   -47.912    114.13   -23.921   -84.179   
220000000  -13.131   -8.4979   -2.6771    6.416   -42.989   -126.83   -25.536   -102.64   
221000000  -13.135   -6.8472   -2.4375   -2.1877   -42.651   -59.558   -51.782   -83.76   
222000000  -12.844   -7.0148   -4.1986   -3.0748   -44.225    162.78   -22.278   -102.63   
223000000  -13.433   -5.5302   -4.0283   -9.234   -43.535   -81.094   -15.189    143.27   
224000000  -13.25   -7.8085   -6.071   -7.2208   -43.966    74.99   -23.524    94.445   
225000000  -13.434   -10.673   -4.6984   -13.94   -49.359   -20.451   -12.743    170.11   
226000000  -13.896   -2.2151   -4.7126   -21.381   -39.606   -102.55   -23.395   -100.09   
227000000  -13.562   -4.4728   -6.3071   -11.841   -39.591    20.576   -20.986    160.98   
228000000  -13.336   -.1647   -5.4179   -27.451   -44.962    98.146   -16.994   -166.04   
229000000  -13.83   -1.3596   -8.5423   -27.691   -52.083    109.1   -20.183   -154.07   
230000000  -13.906   -.1977   -8.5714   -23.174   -42.082    101.54   -24.799    156.54   
231000000  -13.124   -1.913   -5.4071   -36.668   -44.638    175.59   -12.921   -167.84   
232000000  -13.646    1.777   -9.9305   -35.943   -49.003   -82.907   -17.458   -170.46   
233000000  -13.67    2.6697   -14.18   -11.328   -38.461   -59.534   -20.954   -133.62   
234000000  -13.572    2.4884   -8.8221   -47.917   -39.2   -71.146   -37.48   -87.273   
235000000  -13.335    2.4596   -11.58   -46.544   -56.576    85.424   -17.624   -125.96   
236000000  -13.437    7.6987   -15.198   -38.949   -42.794    1.3184   -20.929    163.37   
237000000  -13.104    6.5671   -13.085   -43.557   -43.697   -28.961   -18.371   -122.62   
238000000  -12.799    6.2622   -11.89   -56.526   -50.318   -60.899   -21.404   -86.973   
239000000  -13.242    2.8578   -12.69   -33.158   -43.534    47.962   -25.231    16.765   
240000000  -12.674    9.1145   -12.967   -57.397   -44.448    27.979   -18.205   -119.48   
241000000  -12.632    8.1876   -16.008   -55.059   -41.544   -35.116   -21.119   -150.59   
242000000  -12.538    9.841   -19.048   -44.876   -43.47    128.01   -26.233   -63.36   
243000000  -12.317    11.218   -18.26    2.476   -42.152    172.38   -28.339    111.92   
244000000  -12.346    14.299   -19.974   -18.776   -38.83    57.339   -33.709    96.518   
245000000  -12.203    10.48   -18.748   -88.039   -42.485   -125.69   -32.057    123.5   
246000000  -11.448    7.0258   -23.794   -102.57   -38.579   -127.83   -18.368   -178.12   
247000000  -11.93    12.261   -20.873   -3.2355   -44.314   -100.21   -18.602   -118.99   
248000000  -11.279    13.656   -37.184    142.96   -46.258    149.33   -27.396    169.43   
249000000  -11.171    16.091   -26.455   -124.29   -37.6    31.55   -27.391   -145.35   
250000000  -10.521    14.094   -23.915   -47.995   -43.383    42.492   -19.082    169.02   
