! Network Analyzer HP8753D.06.12 Serial No. 3410A09394
! 
! 12 Jun 2019  09:45:28
# HZ  S  DB R 50
50000000  -12.826    157.7    26.002   -42.919   -51.39    139.19   -11.928   -1.1316   
51000000  -12.764    156.91    26.007   -44.43   -53.878    128.33   -11.917   -1.3033   
52000000  -12.671    155.77    26.017   -45.871   -50.657    148.9   -11.892   -1.9171   
53000000  -12.721    154.91    26.019   -47.337   -51.846    146.77   -11.923   -1.7935   
54000000  -12.652    154.17    26.025   -48.724   -50.088    137.75   -11.937   -2.5777   
55000000  -12.692    152.97    26.03   -50.153   -50.409    130.37   -11.848   -2.7397   
56000000  -12.644    151.67    26.042   -51.579   -49.186    140.74   -11.87   -3.1009   
57000000  -12.577    150.96    26.041   -52.971   -49.182    140.93   -11.857   -3.6104   
58000000  -12.587    150.04    26.049   -54.336   -52.906    132.18   -11.861   -3.9111   
59000000  -12.579    149.53    26.05   -55.734   -54.746    115.02   -11.849   -4.1185   
60000000  -12.596    148.66    26.062   -57.129   -53.559    125.01   -11.812   -4.5511   
61000000  -12.555    147.29    26.058   -58.423   -51.252    111.32   -11.814   -4.8972   
62000000  -12.536    146.68    26.069   -59.783   -50.551    133.5   -11.823   -5.397   
63000000  -12.5    145.78    26.078   -61.139   -49.278    117.22   -11.799   -5.9409   
64000000  -12.418    144.74    26.081   -62.472   -53.18    121.67   -11.778   -5.8145   
65000000  -12.403    144.03    26.092   -63.888   -52.913    121.85   -11.777   -6.1826   
66000000  -12.392    142.88    26.087   -65.183   -51.197    113.84   -11.735   -6.9818   
67000000  -12.398    142.17    26.094   -66.532   -52.298    116.59   -11.734   -7.5421   
68000000  -12.416    141.55    26.091   -67.794   -54.657    108.6   -11.706   -7.7385   
69000000  -12.418    140.65    26.102   -69.166   -51.451    121.48   -11.738   -7.9349   
70000000  -12.33    139.49    26.113   -70.446   -53.802    90.824   -11.736   -8.1779   
71000000  -12.356    138.81    26.114   -71.768   -53.524    112.63   -11.715   -8.9209   
72000000  -12.322    137.97    26.125   -73.093   -52.089    114.94   -11.681   -8.9305   
73000000  -12.34    136.98    26.115   -74.384   -54.034    142.08   -11.647   -9.0706   
74000000  -12.359    136.14    26.127   -75.704   -55.483    111.43   -11.677   -9.9344   
75000000  -12.34    135.54    26.132   -76.928   -56.125    99.845   -11.668   -10.072   
76000000  -12.313    134.91    26.123   -78.191   -51.064    119.38   -11.6   -10.481   
77000000  -12.394    133.6    26.122   -79.523   -53.843    127.86   -11.634   -10.448   
78000000  -12.296    133.16    26.142   -80.824   -51.518    112.29   -11.612   -10.949   
79000000  -12.287    132.35    26.151   -82.171   -50.853    109.85   -11.616   -11.438   
80000000  -12.253    131.45    26.168   -83.423   -53.689    90.01   -11.567   -11.687   
81000000  -12.296    130.41    26.171   -84.735   -50.631    93.176   -11.581   -12.034   
82000000  -12.252    129.6    26.168   -85.974   -51.281    105.83   -11.556   -12.266   
83000000  -12.257    128.8    26.16   -87.236   -50.387    95.003   -11.553   -12.973   
84000000  -12.296    128.15    26.172   -88.494   -52.833    111.89   -11.551   -13.273   
85000000  -12.268    127.77    26.162   -89.742   -52.052    104.99   -11.509   -13.683   
86000000  -12.245    126.94    26.176   -90.983   -50.255    100.29   -11.516   -14.09   
87000000  -12.239    125.86    26.178   -92.293   -51.721    96.518   -11.526   -14.361   
88000000  -12.267    125.27    26.183   -93.58   -50.656    93.544   -11.553   -14.792   
89000000  -12.287    124.79    26.182   -94.815   -54.225    93.148   -11.528   -15.246   
90000000  -12.268    123.82    26.19   -96.08   -52.645    99.928   -11.486   -15.598   
91000000  -12.279    122.95    26.179   -97.324   -54.203    99.801   -11.493   -15.925   
92000000  -12.269    121.94    26.19   -98.586   -50.288    92.401   -11.461   -16.026   
93000000  -12.255    121.58    26.201   -99.849   -52.925    105.21   -11.469   -16.731   
94000000  -12.287    120.38    26.203   -101.13   -53.373    91.166   -11.444   -16.967   
95000000  -12.267    120.22    26.189   -102.37   -51.62    85.766   -11.459   -17.189   
96000000  -12.252    118.96    26.199   -103.54   -52.31    63.528   -11.417   -17.961   
97000000  -12.251    118.62    26.203   -104.83   -51.828    76.621   -11.466   -18.424   
98000000  -12.281    117.89    26.195   -106.1   -51.296    75.711   -11.49   -18.656   
99000000  -12.282    117.22    26.201   -107.28   -54.133    78.981   -11.406   -19.171   
100000000  -12.242    116.71    26.206   -108.52   -55.11    70.899   -11.461   -19.552   
101000000  -12.224    115.6    26.21   -109.73   -52.819    107.22   -11.426   -19.769   
102000000  -12.241    114.81    26.213   -110.98   -51.719    72.806   -11.466   -20.245   
103000000  -12.265    114.34    26.211   -112.17   -54.392    82.119   -11.477   -20.316   
104000000  -12.215    113.34    26.219   -113.41   -53.95    79.75   -11.434   -20.989   
105000000  -12.262    112.96    26.22   -114.64   -50.555    72.132   -11.422   -21.36   
106000000  -12.228    111.9    26.22   -115.84   -56.485    79.413   -11.44   -21.809   
107000000  -12.301    111.39    26.232   -117.15   -49.595    74.43   -11.433   -22.169   
108000000  -12.268    110.64    26.232   -118.36   -55.459    85.773   -11.408   -22.481   
109000000  -12.248    109.77    26.237   -119.49   -50.829    74.49   -11.412   -22.828   
110000000  -12.251    109.11    26.241   -120.78   -49.947    60.246   -11.45   -23.165   
111000000  -12.28    108.41    26.25   -121.9   -53.088    69.299   -11.423   -23.736   
112000000  -12.225    107.69    26.243   -123.24   -51.159    60.64   -11.447   -24.077   
113000000  -12.273    107.03    26.255   -124.33   -50.562    59.995   -11.479   -24.527   
114000000  -12.287    106.25    26.262   -125.64   -53.292    60.871   -11.477   -24.913   
115000000  -12.265    105.63    26.27   -126.78   -51.444    67.949   -11.459   -25.406   
116000000  -12.246    104.94    26.267   -128.1   -51.02    61.882   -11.448   -25.84   
117000000  -12.275    104.15    26.283   -129.29   -55.627    47.711   -11.468   -25.994   
118000000  -12.251    103.43    26.287   -130.43   -52.559    34.17   -11.449   -26.441   
119000000  -12.273    102.67    26.289   -131.66   -52.161    73.878   -11.522   -27.065   
120000000  -12.275    102.14    26.291   -132.88   -49.745    49.476   -11.509   -27.565   
121000000  -12.314    101.47    26.283   -134.24   -55.213    70.87   -11.429   -28.081   
122000000  -12.321    100.83    26.293   -135.31   -53.333    77.182   -11.489   -28.22   
123000000  -12.262    100.17    26.295   -136.52   -50.64    59.076   -11.513   -28.659   
124000000  -12.276    99.579    26.297   -137.78   -51.87    62.124   -11.493   -28.993   
125000000  -12.302    98.855    26.301   -138.95   -52.6    62.097   -11.521   -29.239   
126000000  -12.266    98.472    26.303   -140.17   -50.394    70.582   -11.538   -29.857   
127000000  -12.329    97.714    26.321   -141.4   -53.88    61.257   -11.546   -30.346   
128000000  -12.252    96.968    26.311   -142.64   -52.016    53.123   -11.603   -30.623   
129000000  -12.296    96.482    26.327   -143.84   -51.225    55.275   -11.583   -30.976   
130000000  -12.246    95.782    26.337   -145.08   -55.287    26.848   -11.57   -31.452   
131000000  -12.281    95.021    26.329   -146.26   -51.39    37.627   -11.621   -31.877   
132000000  -12.311    94.282    26.338   -147.46   -53.667    46.067   -11.611   -32.441   
133000000  -12.302    93.922    26.329   -148.71   -52.513    61.668   -11.651   -32.933   
134000000  -12.269    93.036    26.349   -149.91   -53.368    49.871   -11.634   -33.317   
135000000  -12.252    92.113    26.349   -151.15   -50.819    46.263   -11.652   -33.394   
136000000  -12.26    91.891    26.352   -152.39   -52.505    37.61   -11.641   -33.815   
137000000  -12.325    91.461    26.355   -153.58   -58.917    53.764   -11.653   -34.369   
138000000  -12.264    90.538    26.362   -154.81   -53.912    42.826   -11.702   -34.453   
139000000  -12.317    89.653    26.361   -156   -49.831    32.086   -11.651   -35.409   
140000000  -12.298    89.312    26.367   -157.19   -56.772    41.251   -11.747   -35.59   
141000000  -12.292    88.808    26.37   -158.47   -54.131    32.353   -11.731   -35.997   
142000000  -12.289    87.73    26.386   -159.69   -51.558    22.238   -11.759   -36.138   
143000000  -12.289    87.355    26.386   -160.9   -50.144    17.555   -11.728   -36.521   
144000000  -12.321    86.737    26.396   -162.1   -52.389    4.4618   -11.774   -37.581   
145000000  -12.256    86.244    26.401   -163.3   -56.442    21.514   -11.836   -37.59   
146000000  -12.279    85.531    26.415   -164.51   -54.189    54.252   -11.86   -37.73   
147000000  -12.293    84.917    26.415   -165.68   -54.253    47.937   -11.835   -38.197   
148000000  -12.319    84.235    26.41   -166.94   -50.538    26.384   -11.856   -39.003   
149000000  -12.253    83.595    26.433   -168.12   -54.605    32.15   -11.892   -38.811   
150000000  -12.303    82.549    26.425   -169.32   -55.642    34.987   -11.947   -39.328   
151000000  -12.277    82.047    26.439   -170.55   -50.743    45.294   -11.973   -39.717   
152000000  -12.313    81.622    26.454   -171.76   -50.546    27.555   -11.987   -40.303   
153000000  -12.316    80.939    26.452   -172.94   -53.503    27.771   -12.017   -40.629   
154000000  -12.262    80.531    26.464   -174.22   -54.92    21.787   -12.051   -41.063   
155000000  -12.245    79.327    26.468   -175.44   -54.393    28.461   -12.046   -41.392   
156000000  -12.271    79.022    26.474   -176.59   -52.113    15.113   -12.022   -41.885   
157000000  -12.252    78.102    26.493   -177.81   -51.443    18.235   -12.085   -42.06   
158000000  -12.322    77.465    26.496   -178.93   -54.014    18.984   -12.135   -42.466   
159000000  -12.353    77.088    26.503    179.84   -51.808    29.825   -12.126   -42.867   
160000000  -12.23    76.34    26.516    178.54   -50.627    14.983   -12.186   -43.364   
161000000  -12.279    75.557    26.529    177.37   -51.772    31.072   -12.177   -43.929   
162000000  -12.282    75.42    26.54    176.18   -48.968    23.173   -12.219   -44.403   
163000000  -12.326    74.215    26.552    174.97   -54.463    40.577   -12.282   -44.511   
164000000  -12.316    73.617    26.565    173.77   -55.931    25.102   -12.325   -44.784   
165000000  -12.34    73.218    26.582    172.57   -55.05    41.851   -12.296   -45.437   
166000000  -12.289    72.105    26.591    171.27   -51.135    10.031   -12.368   -45.31   
167000000  -12.342    71.763    26.598    170.09   -53.409    12.033   -12.386   -45.93   
168000000  -12.297    70.952    26.616    168.86   -50.059    1.7633   -12.443   -46.224   
169000000  -12.373    70.694    26.626    167.58   -53.249   -6.2128   -12.428   -46.616   
170000000  -12.297    69.575    26.635    166.42   -50.46    8.2796   -12.486   -47.146   
171000000  -12.32    68.968    26.634    165.16   -52.002    10.82   -12.536   -47.291   
172000000  -12.349    68.61    26.654    163.9   -53.308    .3378   -12.501   -47.836   
173000000  -12.327    67.858    26.669    162.66   -54.086    3.0679   -12.633   -48.192   
174000000  -12.359    67.393    26.677    161.46   -51.1    9.3988   -12.644   -48.087   
175000000  -12.387    66.705    26.695    160.21   -51.921    2.6628   -12.625   -48.7   
176000000  -12.341    66.195    26.709    158.91   -52.72    5.625   -12.679   -49.161   
177000000  -12.348    64.983    26.714    157.74   -52.259   -6.1469   -12.766   -49.61   
178000000  -12.378    64.69    26.731    156.49   -52.855    11.845   -12.748   -49.728   
179000000  -12.363    64.27    26.729    155.27   -54.922    18.542   -12.778   -49.834   
180000000  -12.296    63.007    26.741    153.97   -53.25    3.7738   -12.842   -50.618   
181000000  -12.372    62.737    26.751    152.74   -53.493   -10.784   -12.891   -50.668   
182000000  -12.373    62.154    26.748    151.46   -54.233   -10.346   -12.921   -50.974   
183000000  -12.382    61.107    26.769    150.25   -53.738   -3.8548   -12.933   -50.787   
184000000  -12.384    60.557    26.782    149.04   -53.755   -11.06   -12.952   -51.803   
185000000  -12.323    60.208    26.784    147.76   -53.994   -12.377   -12.987   -51.692   
186000000  -12.357    59.413    26.793    146.49   -58.271   -55.106   -13.105   -52.421   
187000000  -12.428    58.712    26.806    145.14   -51.072   -24.777   -12.975   -52.929   
188000000  -12.361    58.256    26.815    143.92   -56.554   -8.4691   -13.189   -52.868   
189000000  -12.436    57.604    26.828    142.77   -53.776   -4.6156   -13.158   -53.069   
190000000  -12.488    57.063    26.837    141.45   -50.736   -16.401   -13.232   -53.718   
191000000  -12.393    56.369    26.843    140.15   -54.412   -17.967   -13.275   -53.383   
192000000  -12.447    55.914    26.854    138.84   -51.101   -17.216   -13.283   -53.888   
193000000  -12.435    55.035    26.861    137.59   -52.506   -32.09   -13.381   -53.959   
194000000  -12.526    54.323    26.889    136.4   -54.959   -37.653   -13.383   -54.695   
195000000  -12.473    53.884    26.895    135.07   -54.235   -9.5856   -13.449   -54.443   
196000000  -12.52    53.194    26.916    133.81   -53.819   -29.358   -13.482   -55.05   
197000000  -12.493    52.44    26.916    132.49   -53.294   -25.082   -13.454   -54.978   
198000000  -12.5    51.923    26.94    131.18   -54.976   -59.768   -13.509   -55.113   
199000000  -12.546    51.129    26.962    129.9   -56.067    .8322   -13.462   -55.353   
200000000  -12.607    50.12    26.959    128.68   -55.206   -13.895   -13.661   -55.911   
201000000  -12.608    49.894    26.975    127.42   -51.709   -54.105   -13.639   -56.033   
202000000  -12.555    49.018    26.982    126.18   -53.052   -15.504   -13.685   -56.276   
203000000  -12.568    48.566    26.986    124.9   -52.414   -40.128   -13.697   -56.456   
204000000  -12.606    47.762    27.001    123.57   -55.173   -27.768   -13.836   -56.92   
205000000  -12.581    47.085    27.017    122.36   -50.861   -40.373   -13.88   -56.884   
206000000  -12.681    46.619    27.026    121.07   -55.346   -35.603   -13.922   -56.88   
207000000  -12.665    45.744    27.03    119.79   -51.039   -60.853   -13.917   -57.231   
208000000  -12.652    45.043    27.036    118.49   -53.194   -32.189   -13.989   -57.619   
209000000  -12.657    44.867    27.046    117.2   -53.446   -17.794   -13.93   -58.44   
210000000  -12.696    44.026    27.063    115.95   -51.836   -23.858   -14.078   -58.204   
211000000  -12.721    43.231    27.08    114.74   -51.576   -26.451   -14.108   -58.074   
212000000  -12.758    42.534    27.098    113.42   -55.529   -35.811   -14.161   -58.543   
213000000  -12.819    41.828    27.111    112.09   -53.909   -31.436   -14.173   -58.6   
214000000  -12.759    41.504    27.119    110.84   -51.526   -30.699   -14.232   -58.619   
215000000  -12.828    40.757    27.132    109.51   -50.36   -56.343   -14.235   -58.758   
216000000  -12.817    40.32    27.151    108.26   -51.714   -38.021   -14.302   -58.575   
217000000  -12.814    39.455    27.146    106.82   -51.66   -29.621   -14.279   -59.135   
218000000  -12.881    38.941    27.164    105.61   -51.594   -58.197   -14.341   -59.33   
219000000  -12.941    37.847    27.187    104.41   -51.386   -36.725   -14.421   -59.387   
220000000  -12.903    37.308    27.194    103   -54.252   -20.506   -14.479   -59.992   
221000000  -12.98    37.088    27.199    101.69   -56.889   -51.207   -14.526   -60.128   
222000000  -13.026    35.668    27.219    100.44   -53.181   -68.888   -14.509   -60.309   
223000000  -13.032    34.956    27.23    99.134   -52.615   -70.962   -14.556   -59.939   
224000000  -13.071    34.071    27.243    97.763   -51.187   -51.974   -14.608   -60.187   
225000000  -13.025    33.909    27.25    96.412   -55.934   -59.089   -14.638   -60.513   
226000000  -13.137    32.995    27.265    95.12   -52.009   -64.685   -14.777   -60.974   
227000000  -13.177    32.739    27.278    93.81   -54.256   -54.322   -14.697   -60.202   
228000000  -13.147    31.783    27.291    92.439   -54.402   -62.122   -14.695   -60.897   
229000000  -13.271    31.237    27.306    91.097   -49.867   -52.839   -14.699   -60.958   
230000000  -13.275    30.671    27.308    89.778   -55.152   -63.06   -14.8   -61.434   
231000000  -13.316    29.894    27.318    88.399   -54.93   -54.627   -14.825   -61.386   
232000000  -13.349    29.191    27.331    87.112   -53.156   -95.151   -14.917   -61.581   
233000000  -13.356    28.173    27.342    85.762   -51.164   -66.839   -14.862   -61.872   
234000000  -13.366    27.499    27.338    84.451   -53.999   -101.05   -14.979   -61.839   
235000000  -13.47    26.768    27.364    83.094   -54.324   -48.333   -14.974   -61.573   
236000000  -13.524    25.924    27.37    81.73   -53.665   -59.58   -14.919   -61.717   
237000000  -13.54    25.065    27.376    80.365   -54.102   -81.942   -15.083   -62.268   
238000000  -13.644    24.652    27.396    79.023   -56.486   -60.767   -15.107   -61.852   
239000000  -13.648    23.762    27.398    77.662   -54.85   -83.78   -15.073   -62.165   
240000000  -13.763    23.284    27.414    76.296   -52.724   -48.299   -15.054   -62.644   
241000000  -13.765    22.291    27.422    74.962   -52.518   -84.44   -15.217   -62.754   
242000000  -13.87    21.789    27.423    73.545   -50.721   -80.419   -15.231   -62.71   
243000000  -13.951    21.08    27.442    72.275   -52.712   -97.101   -15.158   -62.358   
244000000  -14.01    19.832    27.453    70.843   -52.765   -72.268   -15.261   -63.259   
245000000  -14.086    19.344    27.461    69.487   -49.383   -100.9   -15.306   -62.775   
246000000  -14.211    18.829    27.468    68.085   -55.223   -75.903   -15.23   -63.046   
247000000  -14.211    18.046    27.488    66.695   -53.798   -87.692   -15.26   -63.167   
248000000  -14.352    17.313    27.494    65.396   -53.29   -86.693   -15.366   -63.899   
249000000  -14.474    16.536    27.507    64.054   -57.973   -84.187   -15.293   -63.755   
250000000  -14.617    16.073    27.52    62.593   -55.182   -98.035   -15.321   -63.479   
