! Network Analyzer HP8753D.06.12 Serial No. 3410A09394
! 
! 12 Jun 2019  09:23:38
# HZ  S  DB R 50
50000000  -12.819    157.24    26.21   -42.844   -53.2    145.38   -11.996   -1.1206   
51000000  -12.767    156.08    26.214   -44.331   -50.753    140.04   -12.014   -1.4433   
52000000  -12.703    155.06    26.223   -45.786   -54.319    145.38   -11.99   -1.9748   
53000000  -12.719    154.31    26.227   -47.229   -50.403    129.55   -11.933   -1.9583   
54000000  -12.692    153.31    26.234   -48.609   -51.677    113.3   -11.949   -2.3401   
55000000  -12.677    152.36    26.237   -50.039   -52.275    134.91   -11.932   -2.829   
56000000  -12.614    150.84    26.25   -51.485   -55.171    117.55   -11.917   -2.9691   
57000000  -12.582    150.48    26.249   -52.852   -54.457    142.36   -11.901   -3.5321   
58000000  -12.594    149.64    26.26   -54.245   -51.829    127.94   -11.906   -3.8631   
59000000  -12.543    148.88    26.258   -55.624   -52.049    135   -11.892   -4.0141   
60000000  -12.55    147.71    26.269   -57.004   -50.489    135.1   -11.882   -4.1721   
61000000  -12.534    146.46    26.266   -58.296   -54.75    115.99   -11.862   -4.6472   
62000000  -12.524    145.81    26.281   -59.674   -51.33    125.53   -11.852   -5.1801   
63000000  -12.503    144.86    26.285   -61.021   -50.532    117.64   -11.832   -5.6731   
64000000  -12.452    143.81    26.294   -62.378   -53.834    119.13   -11.86   -5.3957   
65000000  -12.417    142.97    26.307   -63.759   -49.325    128.65   -11.791   -6.0439   
66000000  -12.379    141.85    26.299   -65.061   -53.105    135.92   -11.77   -6.1702   
67000000  -12.442    141.14    26.306   -66.395   -53.201    126.1   -11.76   -7.1576   
68000000  -12.42    140.64    26.303   -67.669   -50.437    104.39   -11.742   -7.3444   
69000000  -12.444    139.35    26.315   -69.037   -51.448    151.84   -11.783   -7.2455   
70000000  -12.387    138.25    26.33   -70.325   -54.501    123.38   -11.738   -7.6273   
71000000  -12.389    137.85    26.325   -71.658   -52.138    131.61   -11.688   -8.2782   
72000000  -12.34    136.7    26.341   -72.949   -52.005    106.1   -11.692   -8.7369   
73000000  -12.382    136.29    26.33   -74.279   -50.188    111.15   -11.682   -8.8055   
74000000  -12.362    135.3    26.338   -75.575   -51.542    114.25   -11.705   -9.0706   
75000000  -12.3    134.87    26.347   -76.788   -49.73    106.63   -11.623   -9.4702   
76000000  -12.334    133.6    26.338   -78.062   -50.811    98.091   -11.666   -9.7284   
77000000  -12.38    132.86    26.337   -79.382   -53.199    118.75   -11.614   -9.8891   
78000000  -12.343    131.78    26.356   -80.693   -56.012    110.65   -11.607   -10.491   
79000000  -12.265    131.04    26.364   -82.025   -50.495    91.623   -11.665   -11.143   
80000000  -12.324    130.34    26.381   -83.28   -52.373    97.008   -11.553   -11.276   
81000000  -12.364    129.24    26.388   -84.602   -53.194    116.01   -11.578   -11.582   
82000000  -12.283    128.95    26.383   -85.84   -52.37    112.36   -11.542   -11.948   
83000000  -12.314    127.65    26.377   -87.064   -53.035    81.998   -11.56   -12.479   
84000000  -12.326    127.01    26.388   -88.329   -51.579    95.786   -11.53   -12.894   
85000000  -12.341    126.68    26.377   -89.581   -52.129    121.27   -11.528   -13.156   
86000000  -12.317    125.53    26.39   -90.845   -52.647    102.27   -11.482   -13.287   
87000000  -12.305    124.67    26.394   -92.122   -52.911    97.703   -11.48   -14.046   
88000000  -12.29    124.07    26.402   -93.426   -50.878    101.51   -11.537   -14.495   
89000000  -12.281    123.25    26.398   -94.653   -49.12    88.283   -11.475   -14.417   
90000000  -12.27    122.63    26.408   -95.912   -51.74    103.58   -11.442   -15.01   
91000000  -12.319    121.81    26.394   -97.164   -50.525    95.284   -11.487   -15.228   
92000000  -12.393    120.9    26.405   -98.416   -52.547    62.698   -11.443   -15.474   
93000000  -12.303    120.24    26.419   -99.668   -56.629    60.65   -11.407   -16.181   
94000000  -12.298    119.23    26.419   -100.95   -50.692    106.42   -11.419   -16.473   
95000000  -12.356    118.92    26.407   -102.19   -52.972    95.904   -11.448   -16.685   
96000000  -12.279    118.11    26.415   -103.39   -55.734    80.863   -11.399   -17.238   
97000000  -12.367    117.47    26.418   -104.66   -51.281    69.92   -11.401   -17.875   
98000000  -12.34    116.53    26.413   -105.94   -50.664    83.666   -11.398   -17.964   
99000000  -12.317    115.84    26.42   -107.09   -52.318    91.7   -11.37   -18.474   
100000000  -12.316    115.25    26.421   -108.33   -52.882    86.743   -11.408   -18.898   
101000000  -12.302    114.35    26.427   -109.56   -51.686    90.367   -11.394   -19.141   
102000000  -12.323    113.54    26.429   -110.79   -52.763    68.965   -11.388   -19.512   
103000000  -12.303    113.11    26.428   -112   -51.273    70.028   -11.414   -19.856   
104000000  -12.35    112.32    26.439   -113.23   -49.846    64.07   -11.382   -20.463   
105000000  -12.286    111.32    26.44   -114.46   -51.778    96.39   -11.335   -20.746   
106000000  -12.285    110.95    26.437   -115.64   -52.297    70.097   -11.379   -21.136   
107000000  -12.361    110.05    26.449   -116.95   -51.791    81.502   -11.369   -21.651   
108000000  -12.296    109.71    26.451   -118.16   -53.735    77.469   -11.346   -21.635   
109000000  -12.342    108.54    26.458   -119.3   -52.664    80.141   -11.328   -22.18   
110000000  -12.341    107.64    26.46   -120.58   -53.73    77.893   -11.389   -22.567   
111000000  -12.401    107.04    26.467   -121.71   -50.6    85.945   -11.354   -23.1   
112000000  -12.335    106.35    26.461   -123.04   -52.095    68.133   -11.361   -23.378   
113000000  -12.388    105.71    26.475   -124.15   -51.078    71.452   -11.374   -23.928   
114000000  -12.377    104.83    26.478   -125.44   -56.159    58.884   -11.385   -24.2   
115000000  -12.414    104.33    26.487   -126.56   -51.333    76.571   -11.347   -24.693   
116000000  -12.312    103.66    26.483   -127.88   -52.4    62.699   -11.377   -25.03   
117000000  -12.363    103.02    26.501   -129.09   -53.466    62.172   -11.371   -25.598   
118000000  -12.378    102.15    26.507   -130.22   -51.699    64.317   -11.355   -25.602   
119000000  -12.393    101.51    26.508   -131.47   -52.041    60.349   -11.408   -26.445   
120000000  -12.381    100.93    26.514   -132.65   -53.111    52.149   -11.406   -26.896   
121000000  -12.417    100.4    26.502   -134.03   -51.385    70.258   -11.36   -27.095   
122000000  -12.427    99.612    26.509   -135.08   -51.293    70.902   -11.463   -27.415   
123000000  -12.382    99.029    26.513   -136.3   -51.363    69.353   -11.434   -27.898   
124000000  -12.429    98.453    26.512   -137.56   -53.209    66.521   -11.385   -28.177   
125000000  -12.414    97.899    26.518   -138.7   -51.474    56.934   -11.402   -28.937   
126000000  -12.425    97.166    26.518   -139.94   -52    58.48   -11.399   -29.35   
127000000  -12.425    96.457    26.537   -141.19   -51.797    42.919   -11.428   -29.358   
128000000  -12.429    95.593    26.528   -142.4   -51.714    57.53   -11.455   -30.134   
129000000  -12.396    95.312    26.544   -143.62   -52.087    52.685   -11.518   -30.159   
130000000  -12.429    94.723    26.553   -144.82   -55.221    43.618   -11.442   -30.916   
131000000  -12.433    94.09    26.546   -146.01   -54.336    37.3   -11.494   -31.322   
132000000  -12.423    93.307    26.557   -147.21   -51.645    46.48   -11.469   -31.595   
133000000  -12.462    92.795    26.546   -148.47   -51.387    52.832   -11.527   -32.087   
134000000  -12.404    92.287    26.568   -149.67   -52.552    72.982   -11.497   -32.638   
135000000  -12.463    91.38    26.565   -150.9   -54.196    32.087   -11.525   -33.022   
136000000  -12.43    90.663    26.564   -152.13   -52.173    28.29   -11.528   -33.055   
137000000  -12.395    90.325    26.568   -153.32   -53.713    73.692   -11.522   -33.832   
138000000  -12.442    89.452    26.576   -154.55   -49.858    43.038   -11.586   -33.956   
139000000  -12.393    88.818    26.575   -155.75   -52.585    51.446   -11.577   -34.86   
140000000  -12.482    87.9    26.583   -156.94   -52.579    50.471   -11.568   -35.008   
141000000  -12.406    87.61    26.586   -158.22   -52.378    35.835   -11.614   -35.24   
142000000  -12.439    87.008    26.601   -159.42   -52.802    30.052   -11.621   -35.677   
143000000  -12.442    86.729    26.604   -160.62   -49.263    18.978   -11.619   -36.057   
144000000  -12.429    86.03    26.609   -161.85   -55.113    34.868   -11.61   -36.628   
145000000  -12.435    85.097    26.615   -163.06   -50.661    28.043   -11.675   -37.12   
146000000  -12.465    84.595    26.632   -164.23   -50.706    51.003   -11.703   -37.068   
147000000  -12.442    84.093    26.631   -165.4   -50.187    23.586   -11.697   -37.912   
148000000  -12.471    83.521    26.625   -166.66   -52.882    17.726   -11.763   -38.344   
149000000  -12.431    82.82    26.65   -167.84   -53.065    10.941   -11.749   -38.502   
150000000  -12.426    82.02    26.643   -169.01   -56.062    26.627   -11.816   -38.867   
151000000  -12.431    81.076    26.658   -170.26   -55.468    40.34   -11.824   -39.339   
152000000  -12.441    80.851    26.671   -171.45   -51.385    31.174   -11.811   -39.978   
153000000  -12.468    80.167    26.671   -172.64   -52.424    26.888   -11.867   -39.902   
154000000  -12.401    79.851    26.68   -173.91   -53.083    9.1557   -11.916   -40.5   
155000000  -12.409    78.556    26.684   -175.13   -53.388    10.673   -11.922   -40.774   
156000000  -12.374    78.311    26.693   -176.27   -52.095   -2.1712   -11.93   -41.335   
157000000  -12.45    77.767    26.71   -177.53   -54.402    29.737   -11.923   -41.314   
158000000  -12.459    76.935    26.713   -178.63   -53.89    4.1542   -11.952   -41.999   
159000000  -12.46    76.087    26.718   -179.86   -53.482    38.193   -11.949   -42.591   
160000000  -12.402    75.708    26.734    178.86   -50.697    21.039   -12.045   -42.821   
161000000  -12.46    75.004    26.746    177.68   -52.417    25.204   -12.005   -43.228   
162000000  -12.415    74.719    26.759    176.52   -52.14    15.918   -12.03   -43.634   
163000000  -12.48    73.851    26.77    175.33   -51.304    19.839   -12.158   -43.834   
164000000  -12.513    72.743    26.781    174.08   -54.072   -3.6777   -12.152   -44.286   
165000000  -12.518    72.672    26.799    172.91   -56.159    25.435   -12.159   -44.871   
166000000  -12.456    71.711    26.809    171.6   -54.873    13.278   -12.218   -44.935   
167000000  -12.509    71.178    26.816    170.44   -50.592    10.767   -12.235   -45.279   
168000000  -12.519    70.446    26.831    169.21   -53.458    16.731   -12.251   -45.986   
169000000  -12.524    69.98    26.849    167.92   -52.435    13.649   -12.272   -46.067   
170000000  -12.523    69.383    26.855    166.75   -53.848    6.4847   -12.347   -46.507   
171000000  -12.502    68.818    26.857    165.54   -54.434    12.92   -12.35   -46.788   
172000000  -12.522    67.989    26.875    164.26   -52.14   -4.2064   -12.327   -47.221   
173000000  -12.515    67.522    26.893    163.02   -59.287    18.888   -12.463   -47.762   
174000000  -12.515    66.94    26.902    161.81   -52.11    17.634   -12.494   -47.858   
175000000  -12.518    66.616    26.917    160.58   -55.86    34.748   -12.46   -48.332   
176000000  -12.518    65.815    26.931    159.26   -53.973   -18.086   -12.542   -48.58   
177000000  -12.517    64.958    26.936    158.11   -52.191   -12.941   -12.583   -48.923   
178000000  -12.511    64.237    26.952    156.84   -51.011   -10.114   -12.545   -49.017   
179000000  -12.499    64.028    26.955    155.64   -53.268    9.1571   -12.61   -49.289   
180000000  -12.513    62.853    26.964    154.33   -50.505   -2.1739   -12.669   -49.609   
181000000  -12.535    62.644    26.974    153.13   -52.927    8.7341   -12.768   -50.323   
182000000  -12.511    62.302    26.973    151.84   -59.226   -21.846   -12.813   -50.858   
183000000  -12.557    61.335    26.994    150.61   -52.484    5.3023   -12.748   -51.1   
184000000  -12.561    60.614    27.004    149.4   -53.045   -21.44   -12.798   -51.435   
185000000  -12.5    60.077    27.009    148.14   -53.147    6.839   -12.817   -51.373   
186000000  -12.568    59.484    27.019    146.86   -56.016   -24.033   -12.95   -52.278   
187000000  -12.511    58.8    27.03    145.51   -52.91   -5.386   -12.877   -52.316   
188000000  -12.55    58.384    27.04    144.3   -52.564   -19.9   -13.041   -52.446   
189000000  -12.571    57.592    27.053    143.14   -55.038    9.0019   -13.046   -52.487   
190000000  -12.581    57.279    27.06    141.85   -54.548   -35.695   -13.098   -53.333   
191000000  -12.546    56.229    27.068    140.52   -55.806   -.1730   -13.099   -53.282   
192000000  -12.597    56.067    27.079    139.24   -51.324   -22.177   -13.138   -53.774   
193000000  -12.631    54.822    27.089    137.99   -51.723   -1.2634   -13.217   -53.895   
194000000  -12.711    54.31    27.113    136.78   -52.341   -9.5636   -13.244   -54.215   
195000000  -12.597    54.227    27.12    135.46   -52.991   -35.048   -13.314   -54.366   
196000000  -12.709    53.659    27.14    134.21   -50.263   -11.514   -13.328   -54.863   
197000000  -12.662    52.751    27.144    132.88   -54.327   -8.0667   -13.363   -54.673   
198000000  -12.655    52.57    27.165    131.56   -50.716   -40.542   -13.387   -55.157   
199000000  -12.657    51.667    27.19    130.32   -51.761   -22.207   -13.416   -55.286   
200000000  -12.722    50.766    27.186    129.07   -54.865   -29.112   -13.453   -55.741   
201000000  -12.687    50.544    27.203    127.82   -52.973   -30.526   -13.533   -56.069   
202000000  -12.739    49.528    27.211    126.57   -54.253   -26.764   -13.53   -56.085   
203000000  -12.748    48.903    27.216    125.3   -52.867   -35.751   -13.616   -55.887   
204000000  -12.685    48.245    27.23    124   -49.506   -45.599   -13.701   -56.602   
205000000  -12.702    47.675    27.246    122.75   -50.026   -35.815   -13.684   -57.044   
206000000  -12.778    46.744    27.258    121.46   -54.022   -70.54   -13.703   -56.963   
207000000  -12.806    46.383    27.258    120.2   -55.357   -38.583   -13.774   -57.093   
208000000  -12.779    45.512    27.263    118.91   -53.852   -52.611   -13.785   -57.443   
209000000  -12.801    45.365    27.274    117.61   -52.131   -49.039   -13.855   -57.725   
210000000  -12.804    44.602    27.294    116.35   -51.874   -47.337   -13.909   -57.984   
211000000  -12.827    43.785    27.31    115.15   -49.716   -36.414   -13.939   -57.674   
212000000  -12.859    43.382    27.327    113.83   -53.286   -45.422   -13.931   -58.082   
213000000  -12.882    42.567    27.342    112.52   -52.23   -33.386   -14.064   -58.373   
214000000  -12.936    42.415    27.35    111.26   -55.369   -59.166   -14.081   -58.813   
215000000  -12.914    41.526    27.36    109.93   -53.078   -35.649   -14.187   -59.045   
216000000  -12.901    40.846    27.376    108.67   -52.858   -44.521   -14.158   -59.117   
217000000  -12.889    39.99    27.381    107.23   -52.579   -38.352   -14.169   -59.042   
218000000  -12.893    39.548    27.395    106.02   -51.084   -20.631   -14.245   -59.2   
219000000  -13.01    39.147    27.416    104.84   -57.601   -38.857   -14.265   -60.103   
220000000  -13.003    38.083    27.426    103.43   -56.298   -49.264   -14.335   -60.237   
221000000  -13.041    37.948    27.429    102.12   -54.547   -57.412   -14.362   -60.231   
222000000  -13.117    36.703    27.45    100.88   -51.427   -48.071   -14.352   -60.101   
223000000  -13.121    35.883    27.463    99.565   -51.847   -51.044   -14.402   -60.113   
224000000  -13.126    35.057    27.473    98.196   -51.704   -59.358   -14.501   -60.101   
225000000  -13.042    34.88    27.485    96.844   -52.656   -48.223   -14.475   -60.601   
226000000  -13.164    33.872    27.494    95.552   -53.293   -28.01   -14.609   -60.849   
227000000  -13.209    34.137    27.509    94.275   -52.555   -79.118   -14.546   -60.601   
228000000  -13.202    32.301    27.521    92.896   -57.245   -36.317   -14.647   -60.602   
229000000  -13.286    32.331    27.539    91.534   -55.562   -80.674   -14.621   -61.584   
230000000  -13.277    31.764    27.543    90.218   -51.801   -63.45   -14.727   -61.567   
231000000  -13.267    31.069    27.552    88.823   -53.405   -84.308   -14.727   -61.592   
232000000  -13.337    30.174    27.56    87.565   -59.292   -61.309   -14.765   -61.35   
233000000  -13.294    29.089    27.571    86.23   -55.999   -74.453   -14.72   -61.631   
234000000  -13.392    28.534    27.568    84.879   -55.151   -82.601   -14.835   -61.915   
235000000  -13.482    27.662    27.597    83.55   -56.578   -66.93   -14.811   -61.758   
236000000  -13.471    27.132    27.602    82.187   -53.313   -82.233   -14.837   -62.004   
237000000  -13.548    26.586    27.608    80.818   -51.494   -64.549   -14.902   -62.762   
238000000  -13.531    25.795    27.625    79.478   -52.347   -91.729   -14.967   -62.011   
239000000  -13.659    24.975    27.631    78.121   -53.73   -59.878   -14.91   -62.316   
240000000  -13.654    24.436    27.643    76.772   -51.333   -80.063   -15.048   -62.939   
241000000  -13.733    23.551    27.652    75.431   -54.656   -81.528   -15.042   -62.599   
242000000  -13.807    22.963    27.655    74.019   -51.915   -71.403   -15.053   -63.149   
243000000  -13.848    21.791    27.675    72.739   -56.172   -102.81   -15.002   -62.672   
244000000  -13.98    20.989    27.685    71.33   -54.342   -92.604   -15.04   -62.901   
245000000  -14.068    20.789    27.692    69.938   -56.385   -70.411   -15.138   -63.012   
246000000  -14.064    19.872    27.699    68.553   -56.859   -86.413   -15.168   -63.219   
247000000  -14.155    19.414    27.718    67.155   -51.745   -85.041   -15.11   -63.695   
248000000  -14.307    18.207    27.724    65.889   -58.244   -108.18   -15.181   -63.892   
249000000  -14.37    17.4    27.736    64.536   -53.274   -96.607   -15.232   -63.957   
250000000  -14.518    17.361    27.75    63.079   -53.156   -94.683   -15.172   -63.456   
