! Network Analyzer HP8753D.06.12 Serial No. 3410A09394
! 
! 13 Jun 2019  08:42:42
# HZ  S  DB R 50
50000000  -14.767    28.429   -7.0783    30.011   -45.029    51.512   -21.378    28.049   
51000000  -14.16    30.033   -6.1504    41.925   -44.637   -78.747   -17.695   -22.577   
52000000  -13.509    27.637   -6.1092    26.146   -44.99   -32.202   -21.219    65.697   
53000000  -13.084    30.436   -4.8304    22.194   -46.195   -93.045   -12.845   -7.9802   
54000000  -13.447    25.981   -6.7604    25.83   -49.173    166.6   -16.376   -17.409   
55000000  -13.068    26.006   -4.9112    20.406   -47.083   -108.61   -17.376    36.275   
56000000  -13.035    27.651   -4.5475    9.2477   -52.005    64.216   -16.716    4.9356   
57000000  -12.896    28.203   -7.429    15.82   -39.461   -83.48   -17.166    32.996   
58000000  -12.526    26.667   -5.7562    17.119   -42.977   -25.249   -19.108    25.005   
59000000  -12.349    25.693   -5.5064    .7058   -40.768    111.53   -17.395    40.287   
60000000  -12.677    23.719   -6.094    2.7095   -47.192    47.92   -21.329    47.043   
61000000  -12.519    20.252   -6.8328   -7.4625   -52.27    48.514   -39.566   -4.8038   
62000000  -11.811    22.721   -5.9634   -2.3071   -42.625   -83.504   -17.909   -9.0431   
63000000  -12.308    21.646   -5.5719    .7676   -49.556   -93.734   -21.389    13.689   
64000000  -11.684    18.579   -4.8901    3.5321   -42.319    129.47   -21.849    17.97   
65000000  -11.265    21.963   -6.132   -18.787   -50.734    7.5092   -20.422   -21.331   
66000000  -11.812    19.911   -3.9191   -8.546   -37.55    175.16   -27.95   -72.864   
67000000  -11.319    18.03   -4.2982   -16.467   -36.515    31.58   -26.702    39.054   
68000000  -11.086    14.466   -5.9483   -29.707   -44.954    129.92   -13.087   -10.173   
69000000  -11.29    13.476   -6.3218   -28.379   -44.023    14.355   -20.35   -27.39   
70000000  -11.011    15.815   -6.3905   -30.343   -40.587   -36.955   -31.952   -6.7648   
71000000  -10.874    13.531   -6.3853   -23.037   -44.828    45.681   -15.816    33.677   
72000000  -10.903    14.236   -7.1336   -22.409   -54.863   -2.0229   -18.257    23.888   
73000000  -10.864    11.602   -6.1315   -19.657   -49.318   -9.175   -18.268   -17.67   
74000000  -10.74    11.345   -6.1087   -35.865   -48.746   -32.179   -20.3   -16.839   
75000000  -10.219    11.253   -7.0206   -41.63   -45.207    27.287   -18.176    53.62   
76000000  -10.332    11.644   -5.5273   -48.522   -41.538    142.63   -24.65    26.491   
77000000  -9.9034    10.769   -7.5438   -36.041   -49.335    98.844   -27.266   -100.59   
78000000  -10.144    5.8681   -7.9763   -41.891   -54.09   -4.8834   -17.275   -53.197   
79000000  -10.274    5.89   -9.2781   -53.214   -41.753    147.39   -16.332    19.244   
80000000  -10.23    3.7834   -10.976   -46.066   -57.273   -61.989   -18.36    14.825   
81000000  -10.135    5.0359   -11.613   -58.803   -40.972    147.4   -25.875    43.242   
82000000  -9.9572    3.8438   -11.558   -60.135   -48.663    7.17   -31.614    122.84   
83000000  -9.9139    1.4722   -14.762   -49.382   -40.86   -55.107   -25.084    175.85   
84000000  -9.8922    .1551   -12.32   -49.298   -43.978   -99.424   -22.46   -94.725   
85000000  -9.7783    .1840   -15.369   -35.953   -49.131   -110.42   -16.158    .5232   
86000000  -10.004   -2.6917   -15.886   -23.432   -44.831   -82.69   -24.976   -87.911   
87000000  -9.7912   -3.1778   -17.102   -25.711   -48.16    5.4643   -19.661   -93.609   
88000000  -9.7933   -4.1446   -19.3   -34.724   -56.782    4.6761   -26.837   -98.562   
89000000  -10.03   -6.5355   -17.381    47.276   -46.169    87.282   -21.678    19.039   
90000000  -9.9081   -4.4783   -20.848    106.15   -41.045    41.328   -16.515    50.403   
91000000  -9.824   -7.3457   -20.612    33.059   -45.168    24.958   -20.535   -36.848   
92000000  -10.111   -8.5501   -11.305    87.918   -43.323    81.571   -21.421   -2.7521   
93000000  -9.6046   -9.4675   -12.514    78.415   -47.341    52.756   -16.619    21.443   
94000000  -9.6193   -9.256   -10.672    64.572   -37.957    109.7   -20.769    41.049   
95000000  -9.5157   -14.899   -9.4134    66.363   -38.243   -57.029   -19.332   -11.431   
96000000  -9.8022   -15.035   -7.3866    66.886   -43.075    77.084   -24.077   -42.639   
97000000  -10.004   -11.992   -5.9423    54.469   -44.37    85.218   -20.098   -59.74   
98000000  -9.8754   -15.532   -4.9976    55.93   -41.38    14.679   -14.786   -81.74   
99000000  -10.008   -19.535   -3.8358    59.315   -41.33   -142.99   -30.961   -126.48   
100000000  -9.7808   -19.67   -2.32    53.893   -39.593   -86.568   -16.643   -7.8415   
101000000  -9.6915   -18.799   -2.8655    46.479   -40.509    162.33   -24.722   -40.74   
102000000  -9.9114   -24.071   -2.0749    46.802   -44.26    48.34   -22.904   -15.986   
103000000  -9.6783   -22.729   -.3967    46.725   -45.255   -22.372   -25.603   -32.782   
104000000  -10.131   -25.373   -1.4771    44.187   -42.78    34.551   -20.949    21.064   
105000000  -10.048   -27.537   -1.3093    48.821   -41.659   -3.7257   -19.744   -101.48   
106000000  -10.271   -28.496   -1.9801    39.824   -38.138   -88.743   -24.325   -35.361   
107000000  -10.644   -27.631   -3.5069    30.51   -42.906   -179.39   -19.831    33.072   
108000000  -10.766   -28.835   -3.5538    28.585   -53.459    74.932   -19.362   -23.68   
109000000  -10.448   -32.33   -5.9322    30.843   -38.569    114.86   -21.317   -59.741   
110000000  -10.749   -34.934   -9.612    28.08   -39.016    78.606   -16.867   -59.712   
111000000  -10.901   -34.858   -13.067    80.863   -37.922    170.56   -29.216    28.358   
112000000  -11.559   -37.149   -14.684    130.6   -46.209    105.14   -28.562   -18.447   
113000000  -11.26   -39.739   -9.4521    168.64   -41.966    13.09   -21.537   -75.826   
114000000  -11.667   -38.422   -5.3137    172.59   -48.329    119.48   -26.351   -55.305   
115000000  -12.024   -41.574   -4.0691   -163.8   -49.382    45.585   -16.272   -57.159   
116000000  -12.973   -42.303   -2.4494   -98.244   -45.705    141.72   -19.46   -61.015   
117000000  -12.688   -39.56    7.654   -74.086   -46.914    136.58   -31.347    162.14   
118000000  -13.55   -46.703    15.713   -73.527   -39.542    78.382   -28.792    138.64   
119000000  -13.946   -44.57    22.721   -77.473   -45.998   -36.756   -30.107   -61.967   
120000000  -14.205   -50.459    29.128   -86.909   -48.518    12.314   -29.088   -17.439   
121000000  -16.337   -51.581    35.209   -99.705   -42.368    78.798   -20.286   -38.051   
122000000  -18.149   -36.895    41.084   -115.27   -40.337    47.58   -14.472   -73.437   
123000000  -14.921   -49.728    46.947   -137.4   -41.484   -145.72   -22.209   -104.8   
124000000  -21.987   -45.868    51.999   -167.73   -47.022    121.8   -21.669   -97.972   
125000000  -18.759   -60.526    54.957    153.17   -44.461   -134.71   -23.31   -36.194   
126000000  -14.782   -45.434    55.979    113.56   -51.494   -49.458   -18.392   -62.398   
127000000  -13.548   -37.108    56.169    80.188   -44.004   -1.1137   -19.587   -79.063   
128000000  -14.295   -17.034    56.448    53.204   -55.389    151.46   -20.31   -71.212   
129000000  -17.739   -28.283    56.576    30.877   -56.145   -24.515   -17.892   -124.54   
130000000  -11.03   -35.196    56.594    9.0692   -39.462    128.87   -16.7   -21.043   
131000000  -12.493    8.6009    56.624   -10.727   -44.239   -118.23   -21.207   -63.406   
132000000  -12.761   -15.088    56.697   -28.743   -44.249   -158.64   -16.986   -49.429   
133000000  -26.288    8.3675    56.764   -46.436   -46.02    38.535   -22.665   -121.78   
134000000  -13.829   -11.239    56.885   -62.091   -52.208   -24.927   -20.073   -108.33   
135000000  -9.6612   -26.657    56.831   -76.947   -44.147   -91.647   -19.693   -44.72   
136000000  -13.608   -32.702    56.854   -92.179   -52.384   -115.22   -17.343   -25.06   
137000000  -11.997   -54.864    56.919   -106.31   -39.244   -114.33   -10.819   -73.762   
138000000  -21.088   -63.36    56.993   -120.02   -46.406    177.13   -13.071   -136.96   
139000000  -17.524   -26.798    56.921   -132.46   -51.845   -169.03   -20.885   -110.46   
140000000  -16.832   -16.125    56.94   -145.27   -55.097   -129.91   -25.887    10.046   
141000000  -13.885   -.5712    56.941   -157.98   -48.597    96.673   -25.177   -144.82   
142000000  -19.535    73.856    56.933   -169.64   -41.396   -142.24   -18.396    174.45   
143000000  -14.073    27.407    57.005    178.74   -43.106    176.9   -29.023    101.8   
144000000  -13.914   -56.294    56.986    167.39   -44.63    22.179   -22.608   -97.615   
145000000  -14.424   -12.518    56.96    156.61   -56.331    126.97   -32.379   -91.649   
146000000  -19.189    54.41    56.927    145.31   -39.119   -48.466   -12.997    169.23   
147000000  -12.018    2.682    57.042    134.73   -46.008   -176.52   -21.876   -46.831   
148000000  -10.865   -7.5833    57.005    123.74   -44.103   -166.14   -19.509    31.811   
149000000  -32.6    73.889    57.004    112.78   -40.509    42.458   -16.775   -114.08   
150000000  -13.569    18.152    56.958    102.79   -43.409   -73.306   -16.941    133.2   
151000000  -12.777   -15.557    57.047    92.519   -47.435   -156.09   -19.409   -55.29   
152000000  -11.492   -16.341    57.153    81.13   -44.146   -99.866   -17.511   -41.027   
153000000  -12.479   -19.649    57.18    71.125   -40.216   -103.57   -17.163    7.7989   
154000000  -22.284   -5.3613    57.144    60.602   -44.787    115.59   -16.762   -93.952   
155000000  -13.914    13.239    57.137    50.249   -46.548    29.46   -35.297   -136.6   
156000000  -14.972   -10.771    57.159    39.878   -55.242    54.639   -15.501   -152.73   
157000000  -20.624   -126.45    57.213    29.255   -36.733    167.36   -17.641   -160.86   
158000000  -11.193   -64.98    57.231    18.947   -41.203   -80.34   -14.773   -51.145   
159000000  -11.415   -2.2151    57.273    8.4375   -42.665    89.414   -23.723    97.178   
160000000  -12.091   -45.494    57.123   -1.9775   -43.251   -36.852   -14.552   -84.048   
161000000  -21.518    24.918    57.161   -12.566   -45.747   -154.63   -19.342   -130.26   
162000000  -12.177   -16.561    57.284   -23.078   -44.719    58.553   -18.494    35.493   
163000000  -13.135    .7457    57.15   -33.567   -46.959    122.95   -23.386   -116.42   
164000000  -11.802    30.136    57.119   -43.731   -38.472    169.16   -12.62    73.448   
165000000  -16.898   -5.2158    57.087   -54.202   -53.067   -133.75   -19.121   -151.26   
166000000  -21.351    28.045    57.1   -65.411   -43.795   -64.902   -17.126   -150.31   
167000000  -16.073   -35.726    57.065   -76.369   -52.389    91.155   -28.544   -175.69   
168000000  -17.77    46.989    56.95   -86.784   -46.619   -33.551   -18.04   -130.62   
169000000  -15.469   -13.935    57.005   -97.813   -52.519   -149.64   -20.422   -108.27   
170000000  -15.728   -11.217    56.988   -108.84   -56.351    163.92   -19.629   -90.851   
171000000  -10.851   -13.204    56.957   -119.71   -45.127   -122.41   -33.444    155.61   
172000000  -10.967    85.502    56.899   -131.4   -38.523    29.664   -16.362   -151.1   
173000000  -15.222    39.751    56.813   -142.9   -46.828    27.293   -28.622    139.71   
174000000  -11.52   -14.19    56.794   -155.1   -44.369   -113.07   -24.993   -106.71   
175000000  -18.288   -18.118    56.69   -166.64   -48.603    157.57   -15.001   -107.2   
176000000  -14.943   -7.4666    56.703   -179.74   -50.023   -80.872   -18.318   -43.963   
177000000  -25.002    50.142    56.775    168.23   -44.292    144.2   -20.294    156.83   
178000000  -9.9981    50.103    56.678    154.2   -41.899    96.568   -11.442    105.76   
179000000  -13.023    31.738    56.69    141.01   -48.271    105.39   -22.122   -140.99   
180000000  -20.196    33.68    56.671    126.75   -45.254   -158.17   -16.869   -152.47   
181000000  -23.402    87.584    56.648    111.88   -43.895   -133.52   -18.256   -114.47   
182000000  -12.611   -10.448    56.621    96.018   -45.934    71.553   -21.525   -115.29   
183000000  -14.771   -16.188    56.568    77.934   -53.686    85.667   -23.524   -70.617   
184000000  -9.5218   -1.7523    56.413    59.733   -37.157    138.93   -10.842    7.1576   
185000000  -11.153    9.0829    56.288    40.048   -40.325    148.2   -19.48   -24.166   
186000000  -14.197    13.351    56.036    19.385   -54.437   -135.9   -21.181   -108.1   
187000000  -24.203    94.119    55.833   -3.116   -35.603    86.428   -6.6641   -120.59   
188000000  -13.776    26.697    55.381   -27.225   -45.981   -.1167   -12.291   -167.43   
189000000  -11.269    38.658    54.973   -56.801   -42.359    36.289   -16.708   -174.59   
190000000  -15.167    52.016    53.945   -92.276   -41.18    98.921   -11.906    139.92   
191000000  -13.622    26.86    50.963   -128.25   -45.278    87.005   -23.196   -104.79   
192000000  -13.399    34.522    46.333   -156.98   -42.224    166.29   -18.511   -151.44   
193000000  -14.358    22.066    41.165   -177.02   -33.623   -130.01   -22.26    138.1   
194000000  -12.159    13.725    35.972    168.15   -44.939   -70.858   -27.574   -101.68   
195000000  -12.176    13.701    30.784    157.41   -41.269   -84.776   -20.212   -98.356   
196000000  -11.997    12.125    25.58    149.16   -36.552   -73.39   -26.694    152.05   
197000000  -11.882    7.6135    20.274    143.7   -47.301   -120.15   -22.21   -87.538   
198000000  -11.549    2.6779    14.306    140.73   -40.213    128.56   -23.399   -119.37   
199000000  -11.523    5.0743    8.07    142.46   -47.754   -145.23   -16.056   -151.21   
200000000  -11.657    2.1382   -.0816    152.62   -42.261    134.22   -20.087    125.29   
201000000  -11.555    .2444   -4.962   -172.1   -49.531   -22.084   -23.899   -158.85   
202000000  -11.24    1.4021   -6.891   -115.84   -44.375   -127.19   -18.363   -165.77   
203000000  -11.706   -1.2181   -7.0802   -121.61   -39.572   -90.824   -21.154    154.54   
204000000  -11.916   -5.8763   -10.468   -102.69   -53.157    153.79   -22.426   -100.05   
205000000  -12.262   -4.6692   -19.949   -47.145   -45.68   -135.41   -22.102   -130.99   
206000000  -11.811   -8.0269   -14.577   -60.506   -51.569   -177.52   -29.003    4.0691   
207000000  -12.086   -5.9999   -9.877    18.667   -44.692   -89.827   -20.996    90.853   
208000000  -12.12   -5.7898   -6.9066   -8.4691   -42.62    143.89   -22.952   -13.016   
209000000  -12.23   -8.0338   -6.7525    31.572   -46.749    45.199   -15.185   -128.27   
210000000  -12.101   -5.75   -5.791    18.237   -40.752    77.396   -17.363   -117.09   
211000000  -12.015   -7.928   -4.2362    23.498   -41.651    111.98   -22.109   -146.25   
212000000  -12.03   -11.869   -3.0213    19.611   -50.259    56.496   -20.912   -112.08   
213000000  -12.308   -7.9582   -3.3092    26.364   -51.895   -40.321   -53.226   -83.006   
214000000  -12.193   -9.9152   -2.2784    34.692   -47.93   -3.4291   -20.495   -145   
215000000  -12.382   -13.861   -3.1238    11.357   -39.568    96.876   -20.588   -110.42   
216000000  -12.753   -8.2301   -3.9441    15.406   -50.029   -101.16   -21.175    137.54   
217000000  -13.201   -8.0736   -1.3073    16.97   -53.401    87.111   -17.596   -139.17   
218000000  -13.213   -10.011   -3.1564    4.2668   -40.453   -68.367   -19.446   -116.83   
219000000  -12.809   -10.875   -2.7259    7.5037   -42.113   -32.705   -14.179   -148.22   
220000000  -13.007   -9.6185   -2.0507    3.2314   -43.236    61.313   -17.223   -109.05   
221000000  -13.097   -9.0733   -4.4789   -3.6241   -48.281    167   -21.076    88.811   
222000000  -12.929   -9.9715   -2.3101   -4.926   -39.73    44.265   -29.554   -123.05   
223000000  -13.098   -11.082   -5.1137   -7.7989   -39.839    128.55   -21.424    130.01   
224000000  -13.268   -7.435   -3.2836   -13.613   -58.544    100.24   -17.805   -95.041   
225000000  -13.636   -11.423   -4.4586   -8.649   -44.284   -.8006   -27.914   -167.11   
226000000  -14.113   -2.4088   -4.2885   -1.8018   -52.656    93.451   -23.561   -114.35   
227000000  -13.322   -7.5737   -6.0738   -12.572   -49.005    171.26   -17.127    170.2   
228000000  -13.865   -3.679   -8.5409   -11.927   -41.315    73.339   -14.346   -139.33   
229000000  -13.701   -4.0306   -6.3974   -19.451   -36.394    137.03   -19.335   -108.11   
230000000  -13.906   -4.4536   -5.7864   -23.838   -49.392   -18.224   -26.166   -150.51   
231000000  -13.615   -2.1808   -9.7755   -22.437   -38.474   -1.5353   -17.894    91.496   
232000000  -14.139    .5342   -7.852   -28.489   -42.59   -96.945   -15.724   -150.41   
233000000  -14.264    2.0956   -11.12   -49.33   -46.431    81.781   -16.074   -169.3   
234000000  -13.962   -.2966   -12.909   -75.44   -43.674   -26.423   -24.252    146.53   
235000000  -12.997    4.6239   -9.7069   -48.745   -35.746   -128.65   -16.372   -152.28   
236000000  -13.663    7.0052   -10.725   -48.919   -41.526   -157.94   -25.872   -160.72   
237000000  -13.489    4.8285   -12.121   -47.454   -46.781   -45.975   -17.485    178.67   
238000000  -12.643    3.0391   -18.039   -49.124   -42.915   -138.2   -22.44   -151.41   
239000000  -13.563    5.3902   -14.22   -40.118   -39.572    86.005   -33.123    112.52   
240000000  -12.607    7.6355   -31.172   -6.8019   -43.3    18.66   -16.786    107.04   
241000000  -12.646    8.1258   -21.148   -86.288   -38.773   -172.66   -31.739    84.768   
242000000  -13.149    9.0472   -17.912   -41.811   -42.968   -57.61   -23.203    143.48   
243000000  -12.465    8.1354   -19.638   -90.102   -43.84    101.91   -19.754    161.6   
244000000  -12.383    8.4142   -20.209   -50.776   -45.297    11.678   -22.165    164.14   
245000000  -12.215    12.281   -30.376    24.64   -41.396   -56.687   -22.056    159.63   
246000000  -12.072    9.4043   -25.69    8.5831   -44.475   -62.673   -23.105    78.47   
247000000  -11.984    14.268   -32.352   -82.816   -46.35   -97.707   -24.21   -173.56   
248000000  -11.579    13.237   -19.604    19.826   -56.094   -37.847   -29.027   -136.89   
249000000  -11.401    14.616   -19.738    3.9674   -38.135   -23.529   -23.138    128.37   
250000000  -10.672    14.16   -25.755   -61.188   -47.343   -128.21   -17.737    97.468   
