! Network Analyzer HP8753D.06.12 Serial No. 3410A09394
! 
! 13 Jun 2019  10:01:13
# HZ  S  DB R 50
50000000  -14.717    31.105   -7.5592    25.58   -47.291    9.1777   -21.326    51.898   
51000000  -14.926    31.756   -5.7354    31.494   -47.782    157.85   -18.231    27.121   
52000000  -14.156    30.498   -5.4812    26.033   -46.4    164.02   -23.412    27.477   
53000000  -13.588    31.946   -7.321    23.221   -41.869   -19.015   -14.094    49.101   
54000000  -13.866    29.241   -6.5806    13.933   -39.503    60.363   -15.393    48.157   
55000000  -13.25    28.243   -8.7201    17.446   -49.958   -115.31   -19.371   -8.5584   
56000000  -13.754    31.008   -5.45    17.31   -51.667    153.26   -15.797    25.766   
57000000  -13.03    29.276   -5.6394    14.258   -40.989    87.649   -21.405    41.593   
58000000  -12.961    27.187   -6.4093    12.991   -56.048   -130.45   -15.592    26.82   
59000000  -12.493    26.211   -5.6048    10.926   -44.942    35.973   -20.903   -70.317   
60000000  -12.545    25.016   -5.9528    .9846   -37.878    38.283   -19.162   -26.175   
61000000  -12.458    25.015   -7.6072   -9.2546   -45.61    2.2247   -24.778    45.574   
62000000  -12.038    24.918   -6.9094   -4.9219   -43.174    125.44   -19.058   -47.322   
63000000  -11.994    23.531   -5.449   -18.605   -40.743   -9.5032   -17.968   -44.198   
64000000  -12.258    23.448   -6.4047   -6.0178   -41.663   -30.44   -26.912    77.197   
65000000  -12.021    24.136   -6.5703   -8.5858   -41.784   -112.14   -14.539    5.6387   
66000000  -11.719    23.472   -5.2109   -11.352   -40.661    175.93   -19.437   -1.8169   
67000000  -11.599    22.981   -6.0163   -14.339   -41.512   -127.81   -18.656    21.175   
68000000  -11.12    17.651   -6.9095   -21.04   -42.66    46.305   -23.022    78.663   
69000000  -11.293    18.813   -6.9624   -21.786   -46.981   -107.33   -28.512   -94.532   
70000000  -11.915    18.924   -6.9945   -14.697   -39.738   -64.201   -39.162    143.79   
71000000  -10.736    18.767   -6.5422   -34.302   -43.153   -143.8   -29.469   -34.358   
72000000  -10.945    15.206   -5.0705   -30.486   -40.563    121.05   -20.611   -29.485   
73000000  -10.875    15.289   -6.4783   -28.764   -38.049   -5.3984   -26.249    56.64   
74000000  -10.946    14.752   -6.4247   -47.098   -40.623   -159.89   -24.551    26.908   
75000000  -10.338    13.626   -9.4142   -33.889   -40.106   -98.197   -16.463   -9.4153   
76000000  -10.244    13.92   -7.9316   -40.393   -44.489   -134.86   -24.489   -11.772   
77000000  -10.298    12.327   -7.3513   -41.05   -39.217   -168.23   -17.551    7.5861   
78000000  -10.231    7.836   -8.5364   -46.943   -50.34   -165.6   -15.581    47.527   
79000000  -10.342    9.6666   -7.6815   -47.71   -46.685    147.53   -18.847   -10.68   
80000000  -10.117    9.1393   -10.82   -50.07   -43.228   -68.085   -19.975    47.216   
81000000  -10.344    9.4826   -11.38   -44.246   -51.647    92.951   -18.207   -58.034   
82000000  -9.9936    7.354   -12.758   -71.627   -46.401    24.008   -23.033    5.2625   
83000000  -9.9716    6.7017   -11.952   -55.39   -36.7   -42.448   -17.054    5.1883   
84000000  -10.147    5.062   -12.333   -52.936   -40.419   -138.56   -20.327    97.462   
85000000  -9.7158    5.9573   -13.282   -57.529   -42.488    10.985   -23.317   -2.7425   
86000000  -9.9151    2.1657   -23.642   -.2993   -37.381    118.13   -39.472   -42.881   
87000000  -9.7076    .5452   -22.406   -28.875   -49.884    151.56   -25.701   -29.951   
88000000  -9.9947    .5671   -23.521   -48.915   -44.092   -151.52   -23.018   -33.42   
89000000  -9.893   -1.2772   -16.895    48.454   -40.748    86.064   -16.591   -75.067   
90000000  -9.9547   -2.3044   -19.957    70.557   -53.248    17.4   -21.121   -20.145   
91000000  -9.7377   -2.0627   -16.667    38.988   -40.63   -71.613   -15.693    16.452   
92000000  -9.893   -3.6749   -16.855    92.84   -58.887    67.287   -16.244   -36.492   
93000000  -9.6502   -5.4369   -10.509    69.163   -51.111    152.69   -14.521   -29.36   
94000000  -9.464   -3.0624   -8.7491    65.792   -42.124   -14.035   -22.809   -14.624   
95000000  -9.5884   -8.3482   -8.1926    79.915   -42.588   -68.075   -20.013   -33.771   
96000000  -10.085   -10.724   -7.8155    79.401   -44.516    56.357   -20.136   -1.9583   
97000000  -9.9425   -8.5172   -5.3844    64.837   -41.858    48.448   -22.303    6.7964   
98000000  -9.8381   -12.244   -5.7156    61.591   -48.742    48.47   -17.196   -75.344   
99000000  -9.8813   -13.134   -3.1313    55.143   -41.941    29.009   -18.065   -12.005   
100000000  -9.9573   -13.37   -1.9891    57.551   -49.923   -88.257   -26.355   -4.1515   
101000000  -9.6451   -14.123   -2.3099    54.312   -47.274    131.1   -21.79   -70.568   
102000000  -9.9862   -17.777   -1.1827    52.37   -43.575    3.6639   -16.218   -30.369   
103000000  -9.5833   -17.008   -1.2519    45.401   -42.667   -146.27   -23.745   -68.214   
104000000  -10.14   -20.798   -1.6497    41.131   -38.405    14.258   -18.52   -36.598   
105000000  -9.8717   -21.679   -.6969    39.455   -51.248    153.46   -20.542    10.887   
106000000  -9.9997   -20.856   -1.3031    36.352   -46.421    86.094   -28.723   -61.577   
107000000  -10.173   -23.802   -2.6497    38.294   -48.608   -165.78   -23.358   -39.245   
108000000  -10.353   -23.606   -3.036    22.728   -43.378   -63.641   -18.287   -34.247   
109000000  -9.8892   -26.548   -5.0007    23.763   -56.375    21.286   -23.631   -53.499   
110000000  -10.452   -31.531   -7.9394    29.336   -47.102   -137.9   -28.557   -105.95   
111000000  -10.498   -27.602   -11.362    35.549   -60.642    11.404   -24.081   -141.96   
112000000  -11.091   -30.263   -19.282    64.181   -42.919    125.21   -20.469   -36.339   
113000000  -11.113   -32.422   -19.141    162.87   -40.143   -41.627   -25.84   -85.634   
114000000  -10.93   -31.716   -13.963   -162.05   -44.893   -60.34   -17.986   -72.176   
115000000  -11.504   -32.588   -9.7443   -102.1   -37.795    104.96   -20.482    21.789   
116000000  -11.82   -35.116   -.8792   -69.085   -45.85    20.181   -29.953   -128.97   
117000000  -12.185   -35.839    8.6965   -66.916   -45.612    85.579   -21.553   -53.663   
118000000  -12.718   -38.165    15.931   -70.322   -45.661    34.522   -25.196    20.404   
119000000  -12.893   -36.109    22.396   -76.49   -48.393    179.6   -42.414    97.947   
120000000  -13.308   -37.581    28.516   -86.042   -44.975   -79.971   -22.955   -58.979   
121000000  -14.02   -33.725    34.324   -99.164   -47.437   -24.912   -23.987   -39.364   
122000000  -14.691   -46.309    39.941   -114.73   -41.728    167.24   -30.036    167.33   
123000000  -17.217   -43.187    45.446   -135.55   -43.979    121.86   -22.621    28.571   
124000000  -15.267   -56.363    50.343   -162.57   -41.529   -175.13   -19.064   -51.253   
125000000  -15.715   -23.104    53.817    163.55   -52.281   -66.248   -26.007   -110.37   
126000000  -15.108   -5.6895    55.394    126.63   -62.156    86.795   -19.573   -53.926   
127000000  -15.044   -21.335    55.91    92.359   -50.197   -48.892   -15.895   -103.13   
128000000  -11.382   -24.451    56.327    63.294   -45.007    63.073   -14.685   -78.352   
129000000  -17.622   -105.05    56.533    39.175   -37.917    11.335   -8.9575   -102.76   
130000000  -13.375   -19.777    56.548    15.45   -52.208    116.52   -24.918   -106.85   
131000000  -9.6164   -16.106    56.546   -5.2103   -44.436    160.66   -14.904   -101.27   
132000000  -13.403   -28.11    56.588   -23.906   -47.482    104.34   -14.433   -86.147   
133000000  -15.703    8.7932    56.596   -42.076   -48.723   -.2581   -38.075   -68.426   
134000000  -13.231   -11.636    56.685   -57.895   -55.588   -35.401   -21.251    72.366   
135000000  -10.866    47.196    56.657   -73.073   -38.976    24.361   -21.136    120.83   
136000000  -8.6521    23.654    56.652   -88.031   -38.531   -.8404   -15.231    23.552   
137000000  -14.743   -22.942    56.735   -102.24   -52.699   -115.22   -24.875   -97.645   
138000000  -13.602   -111.12    56.819   -115.68   -38.619   -173.22   -14.489   -142.36   
139000000  -14.614    2.8152    56.75   -128.19   -43.89    53.656   -29.749    77.867   
140000000  -17.832   -45.148    56.818   -141.14   -38.483   -92.736   -10.744   -106.69   
141000000  -6.5102   -49.438    56.843   -153.49   -35.91   -26.61   -10.057   -78.65   
142000000  -10.668   -10.87    56.797   -165.17   -45.996    82.877   -20.623    13.232   
143000000  -13.047    3.4579    56.872   -177.31   -49.484    145.72   -37.439    24.39   
144000000  -20.805   -52.738    56.854    171.28   -44.212   -37.533   -21.219   -57.916   
145000000  -13.563   -45.687    56.856    160.37   -45.023    27.171   -17.062   -42.646   
146000000  -14.995   -5.4808    56.839    148.8   -138.17    145.9   -18.634   -66.408   
147000000  -13.675   -1.4351    56.906    138.11   -65.311   -162.63   -17.835   -47.997   
148000000  -15.871    27.099    56.837    126.88   -43.518   -47.046   -20.559    159.32   
149000000  -9.5831   -25.119    56.895    116.14   -40.684   -167.95   -16.382   -30.278   
150000000  -12.443   -10.482    56.84    105.96   -53.284    168.53   -23.466   -84.25   
151000000  -10.597    1.5724    56.902    95.746   -43.428   -104.13   -18.125   -36.065   
152000000  -11.671   -5.3696    56.985    84.346   -50.501   -88.211   -19.873   -66.896   
153000000  -12.915    .1771    57.001    74.408   -50.634    26.168   -18.519   -174.13   
154000000  -7.0238   -12.713    57.03    64.208   -38.052   -62.508   -16.081    41.762   
155000000  -12.842    2.9059    56.975    53.622   -52.557    30.306   -30.368   -84.457   
156000000  -9.1595    5.202    57.049    43.561   -39.501    9.9495   -12.968    72.697   
157000000  -9.7302   -20.834    57.09    32.623   -42.734   -52.859   -16.071   -47.071   
158000000  -15.297   -1.8059    57.059    22.948   -52.784    159.72   -24.172   -169.85   
159000000  -10.753   -3.4566    57.1    12.095   -46.954    85.52   -27.785   -175.2   
160000000  -12.581   -10.758    56.987    1.7949   -55.988    80.011   -19.458   -77.985   
161000000  -10.453   -25.361    57.015   -9.0651   -45.493    31.343   -17.978   -63.122   
162000000  -9.6925   -36.506    57.102   -19.563   -41.446    3.403   -15.281   -61.745   
163000000  -16.955    26.75    57.005   -29.754   -43.541   -149.48   -20.316   -157.75   
164000000  -12.578   -14.023    56.93   -40.159   -52.473    104.05   -26.31   -20.531   
165000000  -12.214   -22.485    56.932   -50.676   -47.73    112.79   -21.965   -78.511   
166000000  -12.403   -43.249    56.934   -61.962   -42.59    73.452   -16.692   -91.788   
167000000  -6.0751   -40.604    56.88   -73.062   -37.797    122.67   -18.915   -27.577   
168000000  -5.7202   -72.18    56.712   -83.466   -35.59    114.86   -12.339   -62.541   
169000000  -16.801   -10.58    56.843   -94.219   -50.511    9.5883   -17.823   -136.63   
170000000  -21.26    16.102    56.847   -105.49   -46.461    6.4655   -26.346    40.957   
171000000  -14.655    5.9587    56.78   -116.24   -54.755   -31.593   -26.875    102.96   
172000000  -17.63   -55.269    56.682   -128.06   -44.876    130.16   -28.43   -66.239   
173000000  -12.712   -35.84    56.579   -139.01   -44.421   -166.78   -18.799   -83.327   
174000000  -17.023    6.6756    56.589   -151.28   -52.573    83.951   -23.319   -102.49   
175000000  -14.126    17.916    56.49   -162.77   -45.89    10.107   -27.928   -49.569   
176000000  -24.747    26.82    56.544   -175.39   -40.252    138.08   -12.503   -155.62   
177000000  -17.086   -47.734    56.549    172.83   -43.196   -166.9   -15.16   -141.85   
178000000  -12.637    45.695    56.499    158.98   -44.442    117.77   -12.224    137.49   
179000000  -14.586   -10.103    56.49    145.64   -56.047   -132.63   -22.777   -171.94   
180000000  -11.534    32.544    56.456    131.14   -41.702    132.45   -16.194    94.504   
181000000  -13.754   -87.444    56.489    116.45   -40.253   -74.192   -19.267   -173.65   
182000000  -13.672    14.321    56.446    100.71   -48.807   -153.1   -18.734   -102.81   
183000000  -11.84    14.44    56.356    82.159   -48.434   -144.32   -19.075    97.43   
184000000  -15.927    24.315    56.274    63.758   -44.102   -88.76   -14.581    123.64   
185000000  -12.183   -30.958    56.08    44.4   -39.12    52.321   -17.313   -82.038   
186000000  -14.373    41.565    55.763    23.876   -41.756   -54.917   -22.114   -121.09   
187000000  -9.3147    6.3982    55.412    2.5337   -38.011   -80.674   -11.11    78.353   
188000000  -13.589    26.565    55.002   -20.171   -40.914    22.503   -25.395    135.94   
189000000  -12.904   -29.189    54.735   -47.326   -43.968   -145.67   -14.189   -86.045   
190000000  -14.819   -8.1985    54.019   -81.194   -48.504   -177.17   -18.25   -91.726   
191000000  -15.531    6.5945    51.579   -119.76   -48.904   -176.06   -18.788   -177.32   
192000000  -14.542   -4.6404    47.205   -151.52   -44.767   -77.996   -14.815   -116.33   
193000000  -11.75    11.459    41.931   -173.75   -42.746    101.25   -19.432   -124.59   
194000000  -11.374    9.2175    36.566    170.47   -49.655   -163.92   -26.609   -120.89   
195000000  -10.912    9.0253    31.249    159.01   -40.761   -124.8   -18.451    168.94   
196000000  -10.757    5.4808    25.997    150.39   -44.115   -71.638   -25.026    135.06   
197000000  -10.591    4.0718    20.663    144.67   -62.92   -131.88   -17.598   -138.5   
198000000  -10.457    .3872    14.697    140.43   -48.247    66.095   -27.087   -12.921   
199000000  -10.144    1.3156    8.4934    142.43   -42.337   -6.1935   -32.095    149.43   
200000000  -10.262   -4.1748    1.4265    148.26   -41.998   -145.06   -23.132   -54.906   
201000000  -10.008   -2.1355   -7.0112    173.97   -48.731    141.7   -22.762    155.36   
202000000  -9.8148   -3.4772   -9.7367   -123.52   -56.465    156.44   -20.934    179.27   
203000000  -10.015   -3.9413   -7.8348   -104.88   -43.455    3.5719   -26.708   -138.53   
204000000  -9.7975   -8.6105   -12.755   -76.24   -48.574   -74.942   -34.189    47.075   
205000000  -10.447   -10.985   -16.405   -58.026   -39.482   -15.046   -31.112    86.432   
206000000  -10.076   -11.714   -13.277   -23.378   -50.608    137.34   -24.302    117.31   
207000000  -10.084   -12.454   -8.5919    11.532   -48.714   -157.78   -19.748   -88.73   
208000000  -10.249   -10.036   -7.8383    12.703   -37.822    43.474   -24.704    179.73   
209000000  -9.8171   -14.008   -7.266    23.902   -62.775    125.87   -15.703   -173.18   
210000000  -10.08   -15.651   -3.5805    37.047   -50.555    35.421   -25.236   -147.84   
211000000  -10.113   -14.426   -4.5553    34.441   -48.333   -81.965   -21.772   -173.36   
212000000  -10.094   -16.431   -2.5033    19.086   -49.236    87.351   -16.979    179.73   
213000000  -10.187   -15.124   -2.7611    21.426   -39.377   -90.299   -15.423   -172.82   
214000000  -10.233   -16.212   -2.9321    21.734   -45.133    165.19   -22.366   -96.704   
215000000  -10.677   -19.899   -3.4475    14.801   -41.909    141.05   -29.551   -29.239   
216000000  -10.453   -16.506   -2.9798    20.448   -36.433   -38.632   -14.774   -151.35   
217000000  -10.677   -18.243   -2.1418    16.458   -45.143    80.522   -18.066   -104.91   
218000000  -10.547   -19.365   -2.0987    4.4975   -43.732   -47.83   -20.341   -151.04   
219000000  -10.738   -19.616   -1.0057    10.909   -37.858    120.92   -17.35    99.852   
220000000  -10.73   -20.08   -3.1274    11.9   -46.333   -32.345   -20.588   -125.21   
221000000  -11.038   -19.692   -3.0755   -6.0068   -44.034   -121.63   -17.933   -69.634   
222000000  -10.871   -21.888   -4.0686    2.6367   -49.688    92.902   -24.53   -82.163   
223000000  -11.204   -21.616   -5.2196   -1.8938   -49.206    4.4275   -23.816    106.31   
224000000  -11.316   -20.667   -4.9035   -1.4241   -42.829    60.592   -44.921    158.76   
225000000  -11.055   -23.413   -3.2877   -4.7791   -43.581   -130.41   -15.048   -174.59   
226000000  -11.914   -20.921   -5.0418   -10.76   -38.892    171.53   -15.007   -147.89   
227000000  -11.714   -22.173   -6.4191   -2.2755   -46.863   -105.65   -22.74   -144.41   
228000000  -11.709   -20.305   -5.6585   -17.049   -40.58    55.052   -15.064    125.83   
229000000  -11.856   -21.444   -7.8907   -14.759   -39.211   -162.63   -23.503    70.714   
230000000  -11.737   -21.123   -8.9676   -13.407   -41.789   -162.11   -30.706   -70.248   
231000000  -11.766   -22.72   -9.2614   -19.142   -43.953    164.94   -13.694   -170.58   
232000000  -11.983   -23.121   -8.4373   -21.746   -46.838    175.38   -20.318   -136.29   
233000000  -12.359   -17.894   -9.8564   -36.449   -42.598    17.387   -30.513    117.9   
234000000  -12.247   -21.331   -10.012   -39.838   -45.26    150.72   -17.554    170.71   
235000000  -11.603   -19.719   -11.223   -51.034   -40.248   -1.9075   -19.856   -73.725   
236000000  -12.149   -16.576   -11.761   -38.611   -38.717   -103.69   -19.324   -142.85   
237000000  -12.337   -17.058   -13.985   -60.543   -45.073    105.95   -36.335    68.611   
238000000  -11.868   -16.545   -14.453   -21.665   -41.804    9.6899   -20.835   -144.46   
239000000  -12.564   -17.029   -13.498   -56.232   -40.021   -146.51   -25.507    118.94   
240000000  -12.388   -14.789   -17.933   -87.332   -62.261    71.636   -26.141   -129.67   
241000000  -12.296   -17.81   -19.265   -23.303   -42.258    138.2   -19.063    155.87   
242000000  -12.144   -15.991   -13.761   -33.528   -40.034    83.263   -15.626    173.51   
243000000  -12.314   -14.503   -16.413   -65.22   -39.872    50.433   -20.03   -73.209   
244000000  -12.514   -13.254   -23.367   -55.169   -48.481   -97.068   -16.956   -169.9   
245000000  -12.658   -13.409   -29.072   -119.18   -39.234    89.451   -20.941   -142.87   
246000000  -11.919   -13.502   -17.631    17.847   -39.872   -169.33   -19.764   -166.69   
247000000  -12.586   -9.4345   -28.474   -41.585   -42.331    22.348   -28.683    134.53   
248000000  -12.031   -8.877   -34.589   -114.57   -44.876   -92.122   -16.894    153.41   
249000000  -12.013   -8.3496   -19.057    92.267   -44.871    139.24   -14.776   -162.75   
250000000  -11.704   -6.0864   -16.22    14.487   -40.741   -8.5144   -16.517   -173.57   
