! Network Analyzer HP8753D.06.12 Serial No. 3410A09394
! 
! 13 Jun 2019  09:42:57
# HZ  S  DB R 50
50000000  -14.547    33.761   -6.4245    26.665   -48.924    51.078   -17.622    36.881   
51000000  -15.065    33.643   -5.7359    37.279   -45.47    36.024   -26.236    14.781   
52000000  -14.513    28.681   -5.8398    35.923   -42.938   -175.41   -23.103    98.551   
53000000  -13.782    35.21   -6.2416    24.828   -43.681    100.27   -20.285    51.834   
54000000  -13.831    30.764   -6.9935    19.427   -44.93    42.985   -18.627   -11.157   
55000000  -13.641    31.308   -7.0094    1.6658   -44.507    71.238   -20.287   -16.397   
56000000  -13.357    30.885   -7.3607    15.422   -42.355    107.46   -23.928    8.1697   
57000000  -13.453    28.765   -7.712    7.4226   -38.211   -51.144   -21.269   -9.0019   
58000000  -12.993    29.703   -5.3494    3.5761   -46.38   -116.98   -20.15    61.971   
59000000  -12.478    28.515   -6.4476    4.4934   -49.059   -113.55   -21.462    21.168   
60000000  -12.427    26.47   -5.8842    5.3847   -50.824   -11.659   -22.99    47.046   
61000000  -12.507    24.25   -6.5261   -2.038   -38.527    90.591   -31.154    29.645   
62000000  -11.895    24.857   -6.9251   -4.308   -46.617    128.66   -24.718    122.13   
63000000  -11.9    25.528   -5.0315   -2.7562   -51.369   -34.559   -14.857    21.388   
64000000  -11.877    24.719   -6.019   -6.7909   -36.489   -26.73   -39.607   -119.86   
65000000  -11.56    23.231   -5.2421   -25.781   -43.321   -97.281   -24.67   -4.8148   
66000000  -11.836    24.192   -5.7717   -1.3046   -48.941   -146.89   -25.099    32.903   
67000000  -11.602    21.338   -4.9972   -11.113   -42.784    85.465   -18.092   -.4298   
68000000  -11.429    18.217   -6.4978   -32.351   -42.417   -93.176   -40.804    170.55   
69000000  -11.079    19.988   -6.8023   -29.382   -45.639   -135.19   -19.583    .0109   
70000000  -11.433    17.455   -5.3409   -30.499   -51.716   -170.01   -23.103    25.323   
71000000  -11.036    19.983   -8.5234   -20.908   -41.753   -141.58   -19.582    44.636   
72000000  -10.747    15.256   -8.6405   -47.914   -49.626   -118.01   -16.513    7.8813   
73000000  -11.135    13.56   -6.0839   -33.86   -52.846    70.723   -15.337    36.236   
74000000  -10.978    14.138   -9.3116   -45.905   -39.768    110.65   -17.946   -10.054   
75000000  -10.207    12.909   -6.5484   -36.087   -42.711   -146.16   -18.323   -42.053   
76000000  -10.519    14.203   -5.9588   -51.347   -47.084    82.332   -20.892    20.506   
77000000  -10.356    11.58   -6.6549   -40.71   -41.352   -138.15   -17.482    21.025   
78000000  -10.348    8.66   -11.054   -42.97   -45.029    2.5131   -15.694   -.7663   
79000000  -10.355    10.551   -10.112   -53.929   -75.392    173.67   -15.603    .0631   
80000000  -10.344    10.219   -9.328   -31.451   -43.243    95.856   -22.391   -65.576   
81000000  -10.089    6.7964   -11.501   -79.769   -63.004   -97.317   -23.508   -13.044   
82000000  -9.859    4.8862   -13.214   -76.176   -45.932   -34.895   -22.221   -.8528   
83000000  -9.9585    5.1031   -19.408   -76.778   -45.985    125.91   -29.128   -6.0095   
84000000  -9.9114    4.5868   -14.825   -76.649   -57.174   -160.68   -21.988    11.093   
85000000  -9.7681    5.0935   -16.059   -72.657   -49.217   -3.8274   -17.68   -20.138   
86000000  -10.269    .7278   -37.654   -12.799   -53.668    40.305   -22.891   -31.483   
87000000  -10.104    .3584   -35.675    40.969   -45.418    161.3   -21.175   -27.315   
88000000  -9.8472    2.1616   -27.52   -36.3   -47.183   -65.954   -16.41   -2.2206   
89000000  -10.031   -.3570   -20.614    111.87   -41.827   -125.87   -24.629    44.28   
90000000  -10.003   -.7635   -21.342    21.949   -44.156   -17.728   -16.964   -34.823   
91000000  -9.8876   -2.9787   -11.875    87.928   -47.965    104.34   -15.078   -53.17   
92000000  -10.247   -2.0764   -17.379    108.26   -43.862   -31.297   -17.847   -60.298   
93000000  -9.7859   -4.2599   -10.614    65.914   -44.104   -94.973   -18.681   -23.452   
94000000  -9.7369   -5.8104   -9.6347    73.92   -42.052    84.863   -26.746    47.39   
95000000  -9.616   -7.9294   -8.3802    92.671   -40.522    31.899   -18.433   -14.885   
96000000  -9.8702   -10.107   -5.6626    71.194   -56.508   -89.635   -19.044   -97.27   
97000000  -9.9434   -7.4872   -6.7371    76.211   -42.004    77.726   -18.162   -47.815   
98000000  -9.709   -10.953   -4.5545    62.758   -43.283   -141.21   -23.262    6.9173   
99000000  -10.019   -13.012   -3.8644    59.26   -42.909    69.747   -20.293   -59.101   
100000000  -9.8584   -14.499   -2.8768    52.105   -50.142    12.387   -20.083   -24.336   
101000000  -9.6383   -15.054   -2.4553    45.67   -43.646    74.575   -18.782   -14.642   
102000000  -9.9507   -17.507   -2.0127    47.252   -38.232    59.888   -19.259   -50.749   
103000000  -9.5639   -17.173   -2.8882    51.04   -52.654   -49.33   -18.124   -69.03   
104000000  -9.879   -18.799   -1.7309    47.823   -53.104   -114.18   -19.972   -65.264   
105000000  -10.004   -20.389   -1.5818    37.065   -47.685   -62.525   -23.6   -33.441   
106000000  -10.327   -21.753   -1.3853    35.627   -46.214   -150.93   -18.887   -93.097   
107000000  -10.273   -21.654   -1.7693    23.989   -50.643   -98.551   -30.159   -103.48   
108000000  -10.549   -22.765   -3.6393    27.602   -42.74    103.6   -16.182   -56.24   
109000000  -10.385   -25.898   -3.5167    32.84   -44.016   -12.89   -20.22   -24.686   
110000000  -10.578   -31.608   -7.8638    29.504   -44.303   -46.7   -37.17   -54.932   
111000000  -10.672   -28.77   -9.2294    36.192   -45.032    36.004   -27.594   -20.312   
112000000  -11.524   -30.212   -19.415    79.802   -52.539    45.834   -23.279   -14.984   
113000000  -11.014   -31.819   -14.317    169.74   -43.121    27.621   -19.365   -87.458   
114000000  -11.488   -32.624   -13.329   -177.44   -40.357   -171.16   -19.247   -76.811   
115000000  -11.975   -34.492   -10.279   -110.89   -48.261    153.75   -28.904   -104.24   
116000000  -12.267   -35.921   -.7763   -78.736   -46.139    29.321   -23.758   -56.852   
117000000  -12.228   -35.583    8.1107   -66.83   -42.081   -48.137   -21.886   -43.866   
118000000  -12.529   -37.945    15.621   -72.046   -40.491    122.73   -21.476   -23.007   
119000000  -12.785   -36.921    22.156   -77.178   -61.591   -170.33   -23.649   -63.744   
120000000  -13.94   -41.962    28.253   -86.708   -47.224    33.191   -26.665   -49.942   
121000000  -13.883   -42.307    34.08   -99.96   -45.189    125.35   -26.145   -46.539   
122000000  -15.146   -39.727    39.678   -115.36   -56.631    53.606   -22.992   -141.22   
123000000  -18.702   -23.486    45.179   -136.23   -40.265    43.706   -21.664   -51.214   
124000000  -21.46   -39.501    50.124   -163.58   -46.238    127.38   -24.14    43.018   
125000000  -15.296   -20.34    53.56    162.56   -56.522   -58.663   -16.341   -22.584   
126000000  -21.032   -81.116    55.271    125.91   -42.994   -112.84   -15.838   -120.21   
127000000  -14.847    11.474    55.762    91.511   -41.583    150.95   -35.142    145.23   
128000000  -14.725   -13.456    56.187    62.552   -61.274   -18.295   -20.884   -80.439   
129000000  -11.664   -43.996    56.327    38.43   -43.118    84.05   -17.234   -44.595   
130000000  -12.45   -8.866    56.404    14.804   -47.113    174.24   -25.065    63.454   
131000000  -21.458   -24.546    56.415   -6.1523   -44.081    .6001   -21.561    118.48   
132000000  -17.275    5.2583    56.46   -24.657   -44.507   -37.649   -24.527    65.224   
133000000  -11.806   -147.47    56.498   -42.568   -36.309    77.128   -20.473   -149.75   
134000000  -16.153    1.1165    56.584   -58.168   -48.81    43.94   -18.634   -62.477   
135000000  -9.6366    .4902    56.537   -73.141   -43.988   -43.134   -20.185   -61.138   
136000000  -15.753   -82.597    56.624   -88.347   -41.673    162.88   -13.076   -113.97   
137000000  -15.373   -17.552    56.602   -102.6   -56.936   -139.55   -21.505   -68.154   
138000000  -21.071   -34.857    56.619   -115.89   -46.49    163.7   -21.292   -32.025   
139000000  -14.487   -9.9248    56.615   -128.45   -51.386   -4.5758   -15.225   -30.62   
140000000  -17.167   -1.8924    56.659   -141.49   -45.034   -169.9   -19.048   -171.11   
141000000  -19.872   -35.56    56.692   -154.2   -45.763   -127.72   -14.975   -123.01   
142000000  -15.675   -15.662    56.686   -165.8   -61.015   -54.22   -21.212   -113.4   
143000000  -9.667    7.3141    56.732   -177.59   -41.201    121.7   -21.161    46.417   
144000000  -16.713   -88.027    56.743    170.88   -40.267   -19.866   -16.994   -66.793   
145000000  -8.9067   -10.129    56.735    160.02   -41.644    123   -14.974   -42.299   
146000000  -14.362    19.942    56.692    148.56   -44.421   -87.771   -23.397    111.5   
147000000  -13.227   -4.3066    56.765    137.69   -60.897    142.34   -25.749   -65.598   
148000000  -6.9632   -5.5124    56.76    126.66   -36.876   -173.11   -15.096   -10.154   
149000000  -12.385   -16.543    56.744    115.69   -48.122   -173.22   -19.033   -80.824   
150000000  -15.976   -35.666    56.74    105.52   -42.578    74.436   -13.798   -66.746   
151000000  -11.62   -18.99    56.772    95.239   -44.672   -177.62   -15.915   -85.811   
152000000  -11.606   -12.654    56.866    84.047   -46.891   -118.42   -26.131   -9.8232   
153000000  -15.646   -15.097    56.878    73.872   -38.602    139.71   -10.415   -100.88   
154000000  -9.5251   -22.736    56.888    63.666   -42.527   -89.993   -22.725    3.2066   
155000000  -18.814    73.089    56.78    53.264   -38.847    93.708   -11.005   -177.41   
156000000  -14.937   -34.1    56.866    42.757   -43.391   -156.32   -12.272   -118.26   
157000000  -16.258   -20.105    56.94    32.298   -46.931    158.68   -21.404   -133.52   
158000000  -11.942   -3.7367    56.933    22.477   -54.289    45.025   -24.474   -154.07   
159000000  -12.637   -7.803    56.989    11.736   -59.147    93.444   -17.857    131.24   
160000000  -11.224   -22.685    56.884    1.4296   -48.02   -1.6301   -23.6    16.675   
161000000  -10.841   -.7099    56.908   -9.2395   -46.078    105.87   -20.35    170.99   
162000000  -13.897   -40.616    56.969   -19.918   -45.481   -53.766   -18.15   -95.414   
163000000  -14.357    1.2648    56.901   -30.383   -51.77    178.39   -28.173    7.6877   
164000000  -14.864   -31.194    56.76   -40.482   -49.547   -25.55   -13.124   -135.15   
165000000  -13.404   -42.56    56.804   -51.156   -43.622    38.776   -20.815   -97.48   
166000000  -11.86   -53.97    56.786   -62.498   -38.72    62.812   -11.472   -79.273   
167000000  -3.528   -22.282    56.788   -73.683   -34.677    151.35   -17.573    32.158   
168000000  -13.255   -11.852    56.621   -84.147   -59.623   -164.33   -17.417   -36.53   
169000000  -14.726   -22.659    56.7   -94.807   -51.485    124.23   -19.758   -86.743   
170000000  -12.582   -.1826    56.672   -105.83   -50.86   -120.6   -18.899   -96.026   
171000000  -22.37    58.729    56.655   -116.34   -44.556    39.783   -15.371   -159.09   
172000000  -9.8632    59.855    56.549   -128.36   -38.87    6.8898   -20.048   -127.41   
173000000  -13.743   -24.484    56.453   -139.52   -48.817   -163.81   -22.073   -115.06   
174000000  -14.231    41.8    56.447   -151.63   -44.121    28.014   -18.094   -132.36   
175000000  -14.004    9.8259    56.366   -163.22   -53.215   -3.1311   -25.17    177.48   
176000000  -14.518   -6.9516    56.358   -175.95   -55.606   -129.74   -17.194   -90.9   
177000000  -12.665   -20.146    56.392    172.16   -46.944   -108.43   -24.236   -106.48   
178000000  -14.299    57.691    56.337    158.81   -42.598    138.27   -15.209    176.7   
179000000  -14.495    1.9707    56.324    144.96   -58.979   -169.73   -23.69    55.724   
180000000  -9.6847    32.765    56.307    130.73   -39.405    118.78   -21.776    87.692   
181000000  -5.1787   -25.984    56.269    115.98   -38.06    24.274   -20.636   -27.132   
182000000  -15.772   -71.573    56.327    100.04   -37.477   -36.146   -14.478   -143.01   
183000000  -12.978   -14.749    56.239    81.892   -55.067    75.366   -22.108   -56.488   
184000000  -16.33    14.38    56.142    63.342   -45.318   -72.914   -15.651   -158.81   
185000000  -18.818    49.053    55.955    43.735   -39.111   -73.533   -13.13   -155.42   
186000000  -11.279    15.57    55.583    23.254   -46.167   -128.52   -25.925   -98.814   
187000000  -15.468    16.51    55.291    1.6754   -44.235    57.383   -12.602   -136.86   
188000000  -16.253    8.5254    54.814   -20.91   -41.855    91.322   -20.331   -134.11   
189000000  -10.544   -35.132    54.501   -47.905   -39.606   -126.96   -13.019   -43.153   
190000000  -9.2458    9.3974    53.689   -82.115   -39.216   -14.565   -17.164    30.729   
191000000  -15.45    7.6355    51.177   -120.44   -44.924   -170.06   -16.742   -162.77   
192000000  -10.954    6.1043    46.653   -151.45   -44.82    51.367   -20.134    8.9319   
193000000  -13.027    12.228    41.459   -173.74   -38.321   -129.79   -20.631   -117.16   
194000000  -10.847    8.6984    36.122    170.37   -44.628    94.485   -17.128   -119.31   
195000000  -10.753    7.9665    30.846    159.33   -49.357    153.21   -21.026   -141.6   
196000000  -10.85    5.6511    25.627    150.62   -56.621    174.55   -24.546   -89.258   
197000000  -10.459    2.4692    20.193    144.69   -39.519    150.84   -17.462   -147.08   
198000000  -10.267    .2101    14.344    140.31   -37.216   -3.2451   -28.073   -31.617   
199000000  -10.013    3.0048    7.9087    140.09   -38.912    55.995   -24.403    132.87   
200000000  -10.16   -3.3014    1.4628    141.31   -49.41    95.979   -14.228    138.13   
201000000  -10.015   -1.5477   -7.591    172   -41.599    172.93   -22.6   -170.39   
202000000  -9.7369   -2.2   -10.874   -136.47   -46.513    81.325   -19.986   -173.66   
203000000  -10.035   -5.2927   -13.901   -127.99   -38.455   -129.11   -31.88   -164.85   
204000000  -10.025   -8.0502   -15.97   -90.132   -46.775   -29.331   -25.329   -70.91   
205000000  -10.143   -8.0022   -12.996   -35.531   -48.081   -131.37   -18.77   -162.46   
206000000  -9.8072   -10.743   -13.255   -3.6378   -44.928    121.03   -24.327    173.71   
207000000  -10.291   -11.764   -13.509   -7.9486   -41.643    153.71   -28.044    8.8481   
208000000  -10.075   -10.235   -8.4606    33.57   -43.557   -115.89   -21.919   -146.22   
209000000  -10.014   -11.271   -7.7492    23.15   -60.81   -62.604   -19.881   -159.03   
210000000  -9.9534   -12.231   -4.3858    30.303   -45.083   -26.737   -20.418   -105.39   
211000000  -10.152   -13.274   -5.4976    30.28   -41.531    34.151   -15.03   -136.26   
212000000  -9.8121   -16.475   -2.4622    31.246   -48.442   -163.52   -24.138   -161.74   
213000000  -10.48   -16.153   -3.8699    16.558   -40.918    35.8   -16.72    174.8   
214000000  -10.075   -18.001   -2.5222    23.665   -43.839    119.73   -22.285    40.448   
215000000  -10.652   -19.053   -2.3705    31.624   -47.075    144.38   -16.951   -169.22   
216000000  -10.783   -16.861   -2.4147    15.764   -37.689    168.25   -26.92   -178.3   
217000000  -10.86   -15.782   -1.7161    16.379   -49.448   -103.64   -14.854   -168.52   
218000000  -10.574   -18.984   -2.7768    11.05   -42.936    20.631   -17.191    136.58   
219000000  -11.055   -19.674   -3.7151    6.2938   -47.672    160.94   -18.327   -9.4098   
220000000  -11.077   -17.888   -1.772    4.319   -54.702    98.885   -22.724   -139.81   
221000000  -10.88   -21.698   -3.3308    1.8059   -38.618    5.04   -29.519    57.137   
222000000  -10.899   -19.8   -1.8023    3.2204   -41.543    89.739   -17.594   -116.11   
223000000  -10.861   -23.093   -3.6478   -7.6135   -49.007    30.804   -17.312   -150.27   
224000000  -11.338   -22.887   -5.9648   -8.0914   -51.964   -72.887   -32.202   -134.06   
225000000  -11.252   -22.742   -5.0279   -2.9828   -45.26    20.058   -20.507    59.078   
226000000  -11.507   -21.942   -5.1831   -.9846   -60.723   -148.51   -33.43    172   
227000000  -11.27   -21.147   -5.8118   -2.7823   -46.425    153.29   -23.405   -47.677   
228000000  -11.163   -18.311   -5.5493   -17.894   -41.992    63.991   -22.295   -132.38   
229000000  -11.634   -21.272   -6.9231   -26.334   -43.847    149.7   -19.367    177.64   
230000000  -11.779   -19.925   -7.8161   -15.4   -46.72   -40.317   -23.243   -123.05   
231000000  -11.616   -19.689   -9.8524   -26.771   -52.592   -44.767   -24.475   -168.41   
232000000  -12.256   -20.308   -11.607   -14.903   -34.483    39.459   -17.052   -160.57   
233000000  -12.212   -16.72   -10.407   -23.529   -48.504   -128.41   -30.921   -76.227   
234000000  -12.231   -19.683   -10.586   -16.963   -41.892    115.43   -21.682    126.19   
235000000  -12.102   -17.702   -14.991    10.881   -40.048   -168.54   -21.282   -123.29   
236000000  -12.211   -17.676   -10.168   -36.344   -38.445   -8.5941   -36.341    104.45   
237000000  -12.229   -16.957   -13.625   -53.19   -44.504   -152.79   -24.299   -155   
238000000  -11.727   -15.73   -13.976   -30.35   -51.107   -16.981   -18.056   -127.23   
239000000  -12.483   -20.212   -14.424   -60.25   -43.917   -145.71   -17.354   -178.66   
240000000  -12.295   -14.343   -16.242   -36.004   -49.728   -117.44   -23.276   -79.699   
241000000  -12.5   -17.688   -16.972   -42.139   -41.271    54.963   -21.821   -178.62   
242000000  -12.057   -16.871   -17.02   -103.34   -39.968    147.1   -25.432   -152.44   
243000000  -12.023   -14.914   -18.454   -28.912   -43.338   -108.63   -17.607   -158.31   
244000000  -12.177   -12.104   -26.675   -103.54   -48.451    117.39   -26.188   -129.44   
245000000  -12.314   -13.667   -22.485   -88.167   -45.505    19.848   -25.772    170.56   
246000000  -11.984   -12.225   -22.979   -49.889   -46.796    159.78   -18.402   -166.15   
247000000  -12.289   -9.2038   -33.792    125.47   -40.209    43.995   -16.794    132.39   
248000000  -11.859   -9.175   -32.283    4.7983   -46.043   -140.91   -18.193    139.15   
249000000  -11.856   -5.5948   -36.084    95.82   -46.839    115.24   -27.735   -79.104   
250000000  -11.557   -4.9727   -22.075    142.87   -47.867   -7.1782   -20.766    165.93   
