! Network Analyzer HP8753D.06.12 Serial No. 3410A09394
! 
! 13 Jun 2019  10:24:17
# HZ  S  DB R 50
50000000  -14.663    30.704   -6.837    32.301   -45.38    83.673   -23.094    81.676   
51000000  -14.465    32.739   -5.8818    33.29   -48.022    108.83   -26.606    24.538   
52000000  -14.177    28.029   -6.2877    39.177   -48.522    31.8   -21.089    16.916   
53000000  -13.52    32.13   -6.4902    23.148   -47.255   -88.621   -22.149    39.784   
54000000  -13.188    29.831   -5.3071    10.341   -39.821   -62.985   -18.698    53.781   
55000000  -13.491    31.564   -6.7652    16.455   -43.292    30.983   -26.848   -2.2028   
56000000  -13.205    28.102   -5.5203    2.4307   -51.51    23.696   -17.975    5.088   
57000000  -12.567    29.577   -5.8511    11.902   -63.069   -.7292   -15.987    27.206   
58000000  -12.871    28.205   -4.7898    6.2801   -40.127    126.03   -21.622    81.697   
59000000  -12.498    26.4   -4.9004    9.2683   -39.391    104.73   -25.326   -20.139   
60000000  -12.493    26.3   -5.2028   -9.9673   -37.882    110.43   -18.902    13.578   
61000000  -12.079    22.795   -5.4625   -2.2495   -45.876    149.43   -18.322    48.161   
62000000  -12.216    24.77   -7.4731   -7.8868   -47.041    69.068   -22.714   -22.422   
63000000  -12.131    24.521   -8.7295   -5.0414   -43.55   -122.74   -27.921   -48.546   
64000000  -11.774    23.785   -4.8736   -5.1334   -44.018    47.462   -22.967   -29.03   
65000000  -11.587    24.127   -4.3454   -20.374   -51.339   -12.967   -30.553    26.55   
66000000  -11.457    21.669   -4.205   -18.539   -50.125    9.0459   -18.175   -20.176   
67000000  -11.699    21.492   -4.9923   -22.209   -38.056   -110.32   -26.647    112.62   
68000000  -11.358    19.484   -5.406   -14.556   -44.289    169.52   -14.334   -7.3141   
69000000  -11.021    19.131   -4.9185   -38.177   -42.651    65.4   -24.582   -146.82   
70000000  -11.384    17.636   -6.7911   -32.871   -43.738   -90.589   -26.929   -110.35   
71000000  -10.855    19.293   -8.0418   -11.904   -53.187    72.97   -16.226   -40.281   
72000000  -10.734    17.084   -5.8449   -21.29   -48.527   -20.355   -25.208   -1.2772   
73000000  -10.518    15.96   -7.2556   -31.601   -38.247   -23.409   -22.208    34.003   
74000000  -10.646    15.477   -8.1772   -42.299   -44.246   -82.163   -14.415    1.1536   
75000000  -10.042    15.506   -7.1248   -39.703   -55.657   -104.06   -32.434   -89.842   
76000000  -10.057    13.114   -7.674   -44.673   -43.944    123.52   -29.912   -30.965   
77000000  -10.097    11.298   -7.7334   -41.553   -49.843   -125.68   -19.839   -5.3078   
78000000  -10.155    8.3469   -8.9405   -42.433   -47.259    80.055   -25.025   -117.81   
79000000  -10.145    9.6968   -9.9466   -74.328   -43.16   -65.842   -18.824    9.6721   
80000000  -9.9967    8.4924   -9.0343   -57.338   -42.314    158.29   -20.571    17.016   
81000000  -9.9735    7.9637   -10.712   -75.229   -41.61    114.11   -32.342   -53.929   
82000000  -9.651    7.3045   -11.417   -55.661   -47.234   -176.63   -19.787   -34.346   
83000000  -10.023    6.3377   -13.909   -27.602   -40.298   -123.44   -16.763   -10.573   
84000000  -9.745    3.9194   -13.889   -49.662   -41.213    139.92   -21.597   -22.036   
85000000  -9.6428    5.2158   -15.709   -81.573   -43.404   -82.798   -19.287    24.1   
86000000  -9.6532    2.6147   -20.944    1.7372   -42.34   -33.462   -20.533    16.444   
87000000  -9.6289   -.0054   -15.469   -48.159   -59.071   -143.38   -19.351    60.852   
88000000  -9.6066    .4367   -16.02   -132.12   -42.208   -150.2   -22.047   -16.431   
89000000  -9.7068   -.7731   -21.53    141.16   -48.552    81.826   -20.506   -83.578   
90000000  -9.6832   -1.1385   -15.363    82.775   -53.698   -52.799   -22.993   -162.17   
91000000  -9.7999   -3.7903   -11.248    98.757   -46.305    142.13   -19.158   -3.2245   
92000000  -9.7256   -3.3495   -12.256    71.285   -48.32    86.313   -16.191   -25.854   
93000000  -9.6354   -4.5415   -8.8598    87.226   -51.758    52.574   -15.175    32.018   
94000000  -9.694   -4.9947   -8.6687    96.947   -42.094    86.281   -16.413   -91.828   
95000000  -9.42   -9.0623   -6.531    72.328   -42.359    8.8069   -17.646    23.574   
96000000  -9.5924   -10.875   -9.1612    70.392   -44.483    160.31   -22.489   -62.779   
97000000  -9.7983   -9.9522   -4.8586    57.695   -48.239   -5.9711   -21.97   -119.79   
98000000  -9.328   -9.0912   -2.8317    64.698   -51.011   -36.575   -21.79   -23.898   
99000000  -9.686   -12.023   -2.8543    55.212   -48.53   -.0178   -18.528   -39.179   
100000000  -9.5716   -14.317   -1.952    57.476   -43.602    42.764   -24.116    61.037   
101000000  -9.258   -12.886   -1.0934    52.611   -48.786    3.9839   -30.69    30.855   
102000000  -9.8995   -15.406   -1.1346    43.275   -44.823    55.194   -16.337    41.81   
103000000  -9.3424   -17.768   -1.0657    52.453   -43.526    4.5717   -22.892   -66.776   
104000000  -9.7538   -20.33   -.9112    45.939   -50.565   -76.027   -14.739   -56.926   
105000000  -9.7908   -20.485   -1.8814    35.295   -42.39   -30.461   -24.485    2.4252   
106000000  -10.037   -21.246   -1.5588    41.266   -45.95    30.781   -21.324   -9.3466   
107000000  -10.047   -22.037   -1.9157    30.405   -58.593    88.132   -21.641   -42.854   
108000000  -10.128   -23.268   -3.7579    29.095   -49.941    178.62   -25.664   -50.628   
109000000  -10.164   -25.374   -4.0718    24.24   -48.67    102.44   -18.529   -60.551   
110000000  -10.453   -30.659   -7.8306    18.914   -44.248    102.41   -22.415   -7.7261   
111000000  -10.73   -25.535   -8.1463    38.037   -38.829    75.537   -24.584   -162.52   
112000000  -10.924   -29.85   -18.238    81.519   -51.377   -77.157   -17.958    2.7026   
113000000  -10.693   -31.152   -29.821    155.04   -55.024    43.625   -22.49   -47.683   
114000000  -11.178   -30.563   -14.045    173.71   -38.58   -147.27   -20.949   -15.779   
115000000  -11.538   -35.619   -9.6394   -113.43   -65.113   -1.3376   -17.193   -65.853   
116000000  -11.822   -35.289   -.5146   -71.303   -44.382    73.923   -26.241   -76.123   
117000000  -11.977   -35.677    8.447   -66.459   -40.167    25.135   -25.454   -160.2   
118000000  -12.717   -37.189    16.079   -70.171   -54.004    59.469   -24.263    13.591   
119000000  -12.681   -34.428    22.719   -75.396   -45.304   -49.224   -23.019   -34.67   
120000000  -13.32   -40.058    28.841   -85.281   -56.523    31.763   -28.544   -89.889   
121000000  -14.323   -33.838    34.661   -98.054   -46.046   -61.672   -16.35   -75.361   
122000000  -16.33   -42.48    40.302   -113.84   -39.15    67.375   -24.51    123.54   
123000000  -13.013   -38.017    45.789   -134.43   -39.567   -127.5   -19.315   -42.444   
124000000  -13.301   -23.755    50.692   -161.6   -43.734   -90.257   -17.679   -8.3894   
125000000  -22.005   -4.812    54.092    164.73   -46.164    163.9   -27.762   -104.03   
126000000  -6.9569    26.995    55.585    127.3   -37.758    92.479   -14.348    17.515   
127000000  -12.554   -4.65    56.108    93.109   -43.74    71.79   -19.501   -29.18   
128000000  -13.686   -25.172    56.525    64.006   -50.409    14.74   -15.837   -88.178   
129000000  -11.736    26.439    56.658    39.306   -40.58   -113.83   -18.86    113.39   
130000000  -9.3424   -21.145    56.696    16.026   -39.519    144.58   -16.595    16.482   
131000000  -11.899    31.686    56.682   -4.9123   -41.182   -89.092   -16.79    7.1919   
132000000  -10.132   -5.5742    56.766   -23.526   -40.394   -152.05   -24.945    34.538   
133000000  -17.531    28.477    56.766   -41.399   -45.09    9.3947   -25.958   -49.217   
134000000  -10.755   -31.356    56.915   -57.335   -45.352   -125.49   -16.183   -131.78   
135000000  -8.1224   -49.275    56.857   -71.971   -40.056   -140.91   -13.793   -65.538   
136000000  -11.445   -16.415    56.888   -87.529   -49.722   -60.233   -22.86   -108.34   
137000000  -14.298   -15.702    56.897   -101.61   -61.047   -29.732   -15.725   -25.972   
138000000  -11.919   -30.506    56.936   -115.07   -48.653   -93.071   -22.266   -61.484   
139000000  -16.066    9.4798    56.904   -127.78   -40.837    92.105   -14.429    56.135   
140000000  -15.584    12.398    56.968   -140.73   -41.914    161.24   -14.806   -139.8   
141000000  -9.6155   -8.3441    56.926   -153.13   -43.855    39.376   -16.592    6.5533   
142000000  -9.3624   -18.55    56.963   -164.59   -43.131    63.557   -14.63    14.399   
143000000  -12.009    5.338    57.069   -176.9   -45.986    135.7   -18.58   -77.047   
144000000  -10.114   -4.7763    56.974    171.7   -45.685    126.7   -21.702    99.021   
145000000  -10.017    4.4096    57.018    160.83   -44.009    156.23   -16.034   -29.368   
146000000  -18.499   -8.7685    56.995    149.13   -45.352   -4.8779   -16.315   -115.12   
147000000  -10.613   -21.201    57.091    138.53   -44.39    104.79   -14.146   -59.334   
148000000  -16.206    4.753    57.012    127.28   -48.676   -22.545   -26.696   -156.64   
149000000  -14.135    39.401    57.015    116.59   -40.974   -9.1832   -20.846   -144.02   
150000000  -14.061   -12.14    57.012    106.42   -53.52    71.857   -18.85   -59.994   
151000000  -9.2077   -10.254    57.072    96.224   -40.711   -138.51   -16.471   -25.259   
152000000  -9.1537    20.273    57.141    85.027   -38.655   -21.253   -20.244    108.71   
153000000  -11.647    6.9749    57.169    74.932   -39.333   -3.219   -14.174    119.65   
154000000  -6.9845   -6.9324    57.143    64.778   -37.963   -49.202   -15.396    136.5   
155000000  -11.731    31.65    57.095    54.292   -41.546    43.781   -14.255    160.27   
156000000  -12.534   -2.3895    57.188    43.9   -50.574    43.43   -26.841    112.53   
157000000  -13.061   -22.034    57.241    33.311   -54.065   -154.72   -28.29   -175.26   
158000000  -14.742   -42.164    57.211    23.287   -45.841   -121.22   -18.11   -109.16   
159000000  -13.688   -19.7    57.247    12.711   -50.576   -90.621   -15.947   -147.3   
160000000  -10.125   -13.094    57.179    2.4348   -45.574    33.642   -21.119    29.171   
161000000  -13.107   -58.932    57.167   -8.6037   -42.085   -50.537   -13.863   -69.513   
162000000  -14.902   -28.922    57.257   -18.825   -50.345   -87.241   -17.814   -116.35   
163000000  -9.5661    1.8169    57.211   -29.366   -42.505    114.93   -19.886    31.682   
164000000  -11.818    .5864    57.112   -39.446   -45.307    148.94   -21.339    103.47   
165000000  -14.029   -18.671    57.112   -50.058   -138.11    143.46   -27.502   -137.24   
166000000  -17.968   -29.354    57.111   -61.319   -46.099   -11.86   -17.784   -111.03   
167000000  -13.866   -83.739    57.038   -72.105   -42.155    40.654   -16.53   -110.39   
168000000  -7.8286   -10.756    57.006   -83.018   -41.632   -162.81   -19.37    96.75   
169000000  -14.22    8.8783    57.026   -93.722   -41.934   -50.343   -39.584    121.27   
170000000  -9.6014   -22.194    56.977   -104.63   -43.172   -178.67   -15.828   -100.36   
171000000  -13.44   -26.455    56.92   -115.55   -53.063    178.73   -20.426   -50.142   
172000000  -26.25    8.6023    56.848   -127.27   -46.289    81.513   -18.072   -83.335   
173000000  -14.889    67.466    56.829   -138.46   -40.552    44.543   -16.643    165.16   
174000000  -22.099   -15.971    56.78   -150.49   -46.712    107.46   -16.382   -134.33   
175000000  -19.952   -42.09    56.696   -162.04   -41.854    129.78   -16.588   -153.95   
176000000  -14.738    32.716    56.742   -175.2   -43.128    73.533   -13.775    119.85   
177000000  -11.017    21.135    56.738    172.9   -46.135    33.496   -21.464    60.393   
178000000  -10.961   -49.043    56.547    160.37   -41.942   -89.589   -10.174   -62.965   
179000000  -6.4904   -25.763    56.578    146.3   -38.668   -25.168   -10.703   -32.543   
180000000  -14.322   -12.134    56.636    132.06   -54.016   -91.633   -22.974   -68.206   
181000000  -9.3404   -55.338    56.627    117.29   -40.999   -31.332   -19.258   -69.586   
182000000  -15.454   -35.892    56.62    101.07   -43.04   -29.908   -20.728    87.672   
183000000  -5.7512   -3.0693    56.562    82.848   -37.897    149.16   -19.972    106.29   
184000000  -12.918   -8.2919    56.483    64.898   -54.068    114.72   -14.824   -81.41   
185000000  -13.185   -12.725    56.309    45.22   -47.357    63.476   -13.694   -112.19   
186000000  -8.723   -22.515    55.987    25.017   -38.72    135.66   -10.424   -67.938   
187000000  -11.176   -.3515    55.691    3.2835   -43.818   -100.96   -23.497    36.234   
188000000  -8.9263   -8.5515    55.266   -19.179   -35.827   -116.33   -15.927   -10.114   
189000000  -7.9807   -20.48    54.964   -46.095   -38.858   -85.391   -17.195    6.0397   
190000000  -9.8454    1.306    54.343   -80.068   -41.789   -34.005   -23.289    9.1901   
191000000  -12.989   -2.1121    52.126   -118.8   -48.121   -21.386   -17.507   -94.871   
192000000  -11.212    3.6296    47.796   -151.2   -47.276    35.857   -19.192   -116.39   
193000000  -12.122    15.529    42.541   -173.81   -42.141    152.31   -28.819   -127.27   
194000000  -11.117    10.625    37.189    170.16   -43.991    168.56   -15.184   -115.07   
195000000  -11.184    3.6488    31.877    159   -41.561    19.531   -26.545   -51.34   
196000000  -11.014    7.0285    26.578    149.44   -41.898   -85.931   -16.164    179.13   
197000000  -10.771    4.1913    21.205    143.34   -49.93    127.03   -20.938   -165.31   
198000000  -10.037   -2.9114    15.384    140.13   -41.181    65.944   -33.602   -75.749   
199000000  -10.225   -1.2909    9.2167    142.79   -47.28    19.852   -23.711   -165.2   
200000000  -10.264   -2.7315    1.5073    147.57   -41.604   -135.78   -20.06   -149.07   
201000000  -10.12   -3.6942   -4.7046    174.73   -51.166   -75.28   -17.542   -139.93   
202000000  -9.3759   -4.7447   -9.0738   -125.59   -49.798   -131.22   -26.944   -129.15   
203000000  -10.034   -6.4517   -11.692   -105   -38.702   -137.41   -21.101    172.65   
204000000  -10.209   -10.543   -10.492   -105.87   -44.178    75.026   -45.938    83.333   
205000000  -10.758   -10.708   -19.056   -33.448   -40.678   -93.612   -21.395    179.02   
206000000  -10.187   -10.393   -14.962   -11.019   -37.027    32.785   -19.459   -110.61   
207000000  -10.322   -11.424   -10.061    15.824   -39.517    94.187   -30.655   -99.966   
208000000  -10.087   -10.886   -8.6657    24.498   -48.687    8.3373   -20.403    83.592   
209000000  -9.8848   -15.667   -6.8083    18.04   -40.926    64.254   -23.178   -162.95   
210000000  -10.126   -14.551   -4.8428    29.28   -37.455   -177.53   -41.429   -7.6712   
211000000  -10.048   -14.777   -5.0355    26.919   -45.676    30.948   -23.518   -148.62   
212000000  -10.14   -18.116   -2.0575    27.716   -42.411   -80.298   -34.549   -86.862   
213000000  -10.65   -18.427   -2.2121    18.571   -46.875   -153.33   -20.759   -135.32   
214000000  -9.9221   -16.71   -1.7375    28.429   -45.458    157.26   -26.576   -143.57   
215000000  -10.504   -22.755   -2.4078    20.441   -41.014   -48.694   -28.955    113.79   
216000000  -10.652   -17.14   -2.4305    15.588   -39.409    144.8   -22.25   -91.968   
217000000  -10.64   -19.215   -1.4254    11.328   -43.548    131.78   -24.087   -165.47   
218000000  -10.443   -19.403   -1.3672    13.727   -51.124    141.18   -14.545   -128.26   
219000000  -10.591   -20.543   -2.4421    4.4934   -38.12   -18.872   -16.68   -140.51   
220000000  -11.107   -21.643   -1.7795    14.339   -47.559    61.725   -17.338   -128.9   
221000000  -11.181   -19.24   -4.0327    4.0897   -43.516    122.65   -16.559    179.45   
222000000  -11.137   -23.806   -3.595    2.5282   -46.36    143.91   -17.787   -107.76   
223000000  -11.073   -24.855   -3.899   -6.2704   -55.699   -154.54   -24.98    136.45   
224000000  -11.207   -23.92   -4.5323   -10.029   -50.395    68.759   -34.092   -172.88   
225000000  -11.471   -24.806   -3.9269    3.8109   -42.532    126.93   -32.362   -163.02   
226000000  -11.679   -20.788   -5.313   -3.7862   -44.245    2.7754   -24.178    107.2   
227000000  -11.492   -23.033   -6.0648   -21.506   -42.321   -177.75   -18.005   -158.7   
228000000  -11.368   -22.216   -7.6593   -19.078   -41.302   -15.099   -20.079   -158.99   
229000000  -12.02   -22.073   -8.8756   -8.3949   -45.685   -5.7129   -34.076    107.64   
230000000  -11.644   -20.488   -5.8952   -20.369   -45.732    7.6726   -21.868    108.5   
231000000  -11.902   -20.297   -6.5462   -13.387   -44.877    62.959   -13.051   -177.97   
232000000  -11.996   -21.298   -7.5277   -24.318   -44.139    41.607   -18.508   -108.09   
233000000  -12.379   -21.437   -7.921   -24.491   -37.517    147.01   -14.751    135.84   
234000000  -12.111   -21.66   -13.166   -14.266   -56.689    33.858   -21.678    143.79   
235000000  -11.862   -19.517   -8.5915   -49.182   -39.07   -146.63   -19.013    106.14   
236000000  -12.515   -17.52   -11.15   -43.831   -41.573    79.016   -27.502   -140.5   
237000000  -12.58   -19.425   -13.137   -20.753   -49.655    5.6772   -26.328   -148.98   
238000000  -11.807   -18.663   -14.897   -38.627   -39.467    3.8411   -25.813   -42.376   
239000000  -12.601   -19.656   -11.596   -38.841   -45.372   -169.7   -37.074   -29.206   
240000000  -12.447   -15.842   -15.119   -22.595   -44.244   -69.324   -26.672   -127.27   
241000000  -12.415   -17.515   -23.102   -115.83   -49.166    14.631   -20.721    49.108   
242000000  -12.06   -19.431   -14.144   -37.312   -44.429    1.6191   -24.51   -108.62   
243000000  -12.166   -14.454   -24.712   -16.297   -52.456    163.8   -25.899    174.09   
244000000  -12.325   -17.836   -21.368   -23.497   -37.108    142.92   -18.901    164.97   
245000000  -12.778   -13.042   -26.608   -17.645   -49.902    166.92   -24.007   -148.28   
246000000  -11.969   -16.006   -25.277   -24.568   -55.891   -178.72   -18.334   -147.57   
247000000  -12.427   -10.194   -30.124    29.158   -42.421   -63.611   -21.656   -111.45   
248000000  -12.119   -12.866   -26.509    21.969   -53.572    124.8   -21.992   -169.8   
249000000  -12.246   -6.1441   -27.037    120.65   -44.334    63.327   -15.108   -144.63   
250000000  -11.865   -7.7371   -21.536   -155.41   -45.643    78.308   -21.787    166.96   
